Circuit: * C:\Users\dbata\OneDrive\Escritorio\Checkpoint 1\Version 2\Version 2.asc

Warning: Multiple definitions of model "2scr375p" Type: BJT
Warning: Multiple definitions of model "bc857b" Type: BJT
Warning: Multiple definitions of model "bc847c" Type: BJT
Warning: Multiple definitions of model "bc847b" Type: BJT
Direct Newton iteration for .op point succeeded.
Semiconductor Device Operating Points:
                        --- Bipolar Transistors ---
Name:       q6          q5          q11         q10         q8
Model:    2n3019      d45h11      bc547c      bc547c      bc547c
Ib:       9.56e-05   -1.91e-02    6.67e-05    2.23e-06    2.25e-06
Ic:       1.91e-02   -1.42e+00    2.60e-02    1.02e-03    1.02e-03
Vbe:      7.24e-01   -5.52e-01    7.18e-01    6.22e-01    6.22e-01
Vbc:     -2.35e+00    3.07e+00   -7.24e-01   -4.02e-01    0.00e+00
Vce:      3.07e+00   -3.62e+00    1.44e+00    1.02e+00    6.22e-01
BetaDC:   2.00e+02    7.42e+01    3.90e+02    4.56e+02    4.52e+02
Gm:       7.20e-01    5.82e+01    8.60e-01    3.87e-02    3.86e-02
Rpi:      2.71e+02    1.15e+00    3.92e+02    1.17e+04    1.17e+04
Rx:       1.00e+01    1.84e+00    1.00e+00    1.00e+00    1.00e+00
Ro:       5.36e+03    9.46e+00    2.05e+03    5.20e+04    5.17e+04
Cbe:      6.64e-10    2.54e-07    6.37e-10    5.01e-11    5.00e-11
Cbc:      9.62e-12    2.43e-10    1.80e-12    2.01e-12    2.74e-12
Cjs:      0.00e+00    0.00e+00    0.00e+00    0.00e+00    0.00e+00
BetaAC:   1.95e+02    6.72e+01    3.37e+02    4.53e+02    4.50e+02
Cbx:      0.00e+00    5.98e-11    1.11e-12    1.24e-12    1.69e-12
Ft:       1.70e+08    3.65e+07    2.14e+08    1.15e+08    1.13e+08

Name:       q7          q2          q1          q9          q4
Model:    bc547c      bc547c      bc547c      bc557c      bc557c
Ib:       2.25e-06   -6.12e-12    2.31e-06   -1.04e-03   -2.74e-13
Ic:       1.04e-03    4.97e-12    1.04e-03   -2.71e-02   -7.89e-12
Vbe:      6.22e-01   -1.15e+00    6.23e-01   -7.40e-01   -1.29e-01
Vbc:     -1.25e+00   -4.94e+00    2.58e-01   -6.60e-01    0.00e+00
Vce:      1.88e+00    3.79e+00    3.65e-01   -8.00e-02   -1.29e-01
BetaDC:   4.63e+02   -8.12e-01    4.50e+02    2.62e+01    2.88e+01
Gm:       3.95e-02    1.71e-31    3.94e-02    7.78e-01    3.08e-10
Rpi:      1.17e+04    1.00e+12    1.13e+04    2.13e+02    1.88e+11
Rx:       1.00e+00    1.00e+00    1.00e+00    1.00e+00    1.00e+00
Ro:       5.17e+04    1.30e+93    5.03e+04    3.52e+00    3.98e+11
Cbe:      5.05e-11    8.43e-12    5.05e-11    1.02e-09    1.46e-11
Cbc:      1.58e-12    1.11e-12    7.13e-12    1.17e-11    4.90e-12
Cjs:      0.00e+00    0.00e+00    0.00e+00    0.00e+00    0.00e+00
BetaAC:   4.60e+02    1.71e-19    4.47e+02    1.66e+02    5.77e+01
Cbx:      9.68e-13    6.81e-13    4.38e-12    6.90e-12    2.90e-12
Ft:       1.19e+08    1.56e-02    1.01e+08    1.20e+08    2.18e+00

Name:       q3
Model:    bc557c
Ib:       3.20e-12
Ic:      -1.25e-11
Vbe:     -1.29e-01
Vbc:      3.43e+00
Vce:     -3.56e+00
BetaDC:  -3.90e+00
Gm:       3.51e-10
Rpi:      1.88e+11
Rx:       1.00e+00
Ro:       3.14e+12
Cbe:      1.46e-11
Cbc:      2.04e-12
Cjs:      0.00e+00
BetaAC:   6.59e+01
Cbx:      1.20e-12
Ft:       3.14e+00



vo1rc: v(vo)=4.99827 at 100
vo2rc: v(vo)=4.41869 at 5
io1rc: i(rl)=0.0499827 at 100
io2rc: i(rl)=0.883807 at 5
regcar: (-(vo2rc-vo1rc)/(io2rc-io1rc))=0.695084


Date: Mon Mar 24 22:56:14 2025
Total elapsed time: 10.692 seconds.

tnom = 27
temp = 27
method = trap
totiter = 800
traniter = 0
tranpoints = 0
accept = 0
rejected = 0
matrix size = 49
fillins = 46
solver = Normal
Matrix Compiler1: 6.01 KB object code size
Matrix Compiler2: 5.32 KB object code size  0.4/0.6/[0.3]

