Circuit: * C:\Users\Lionheart\Documents\GitHub\Taller-de-Circuitos-Electronicos-TPI\Checkpoint 1\Version 3 - Limitador de Corriente\Version 3.asc

Warning: Multiple definitions of model "2scr375p" Type: BJT
Warning: Multiple definitions of model "bc857b" Type: BJT
Warning: Multiple definitions of model "bc847c" Type: BJT
Warning: Multiple definitions of model "bc847b" Type: BJT
Early termination of direct N-R iteration.
Direct Newton iteration failed to find .op point.  (Use ".option noopiter" to skip.)
Starting Gmin stepping
Gmin = 10
vernier = 0.5
Gmin = 1.86414
vernier = 0.25
vernier = 0.125
vernier = 0.0625
vernier = 0.03125
Gmin = 1.82123
vernier = 0.015625
vernier = 0.0078125
vernier = 0.00390625
vernier = 0.00195313
Gmin = 1.81945
vernier = 0.000976563
vernier = 0.000488281
Gmin = 0
Gmin stepping failed

Starting source stepping with srcstepmethod=0
Source Step = 3.0303%
Source Step = 18.9394%
Source Step = 26.5152%
Source Step = 34.0909%
Source Step = 41.6667%
Source Step = 49.2424%
vernier = 0.375
Source Step = 58.3333%
Source Step = 69.697%
Source Step = 81.0606%
Source Step = 92.4242%
Source stepping succeeded in finding the operating point.

Semiconductor Device Operating Points:
                        --- Diodes ---
Name:    d:u5:p      d:u5:ln     d:u5:lp     d:u5:e      d:u5:c
Model:    u5:dx       u5:dx       u5:dx       u5:dx       u5:dx
Id:     -1.00e-11   -4.00e-11   -4.00e-11    6.42e-14   -7.36e-12
Vd:     -1.00e+01   -4.00e+01   -4.00e+01    5.76e-02   -7.36e+00
Req:     1.00e+12    1.00e+12    1.00e+12    7.77e+11    1.00e+12
CAP:     0.00e+00    0.00e+00    0.00e+00    0.00e+00    0.00e+00

Name:    d:u4:p      d:u4:ln     d:u4:lp     d:u4:e      d:u4:c
Model:    u4:dx       u4:dx       u4:dx       u4:dx       u4:dx
Id:     -1.00e-11   -4.00e-11   -4.00e-11    5.64e-08   -7.77e-12
Vd:     -1.00e+01   -4.00e+01   -4.00e+01    4.67e-01   -7.77e+00
Req:     1.00e+12    1.00e+12    1.00e+12    4.58e+05    1.00e+12
CAP:     0.00e+00    0.00e+00    0.00e+00    0.00e+00    0.00e+00

Name:    d:u3:p      d:u3:ln     d:u3:lp     d:u3:e      d:u3:c
Model:    u3:dx       u3:dx       u3:dx       u3:dx       u3:dx
Id:     -1.00e-11   -4.00e-11   -4.00e-11    7.39e-14   -7.37e-12
Vd:     -1.00e+01   -4.00e+01   -4.00e+01    6.49e-02   -7.36e+00
Req:     1.00e+12    1.00e+12    1.00e+12    7.25e+11    1.00e+12
CAP:     0.00e+00    0.00e+00    0.00e+00    0.00e+00    0.00e+00

Name:    d:u2:p      d:u2:ln     d:u2:lp     d:u2:e      d:u2:c
Model:    u2:dx       u2:dx       u2:dx       u2:dx       u2:dx
Id:     -1.00e-11   -4.00e-11   -4.00e-11    1.89e-12   -7.50e-12
Vd:     -1.00e+01   -4.00e+01   -4.00e+01    1.98e-01   -7.50e+00
Req:     1.00e+12    1.00e+12    1.00e+12    1.51e+10    1.00e+12
CAP:     0.00e+00    0.00e+00    0.00e+00    0.00e+00    0.00e+00

Name:    d:u1:p      d:u1:ln     d:u1:lp     d:u1:e      d:u1:c
Model:    u1:dx       u1:dx       u1:dx       u1:dx       u1:dx
Id:     -1.00e-11   -4.00e-11   -4.00e-11   -1.52e-13   -7.15e-12
Vd:     -1.00e+01   -4.00e+01   -4.00e+01   -1.52e-01   -7.15e+00
Req:     1.00e+12    1.00e+12    1.00e+12    1.00e+12    1.00e+12
CAP:     0.00e+00    0.00e+00    0.00e+00    0.00e+00    0.00e+00

                        --- Bipolar Transistors ---
Name:     q:u5:2      q:u5:1      q:u4:2      q:u4:1      q:u3:2
Model:     u5:qx       u5:qx       u4:qx       u4:qx       u3:qx
Ib:      -2.05e-08   -2.03e-08   -2.06e-08   -2.02e-08   -2.05e-08
Ic:      -5.11e-06   -5.08e-06   -5.16e-06   -5.05e-06   -5.12e-06
Vbe:     -5.84e-01   -5.84e-01   -5.84e-01   -5.84e-01   -5.84e-01
Vbc:      4.99e-01    4.99e-01    9.07e-02    9.24e-02    2.28e-01
Vce:     -1.08e+00   -1.08e+00   -6.75e-01   -6.76e-01   -8.12e-01
BetaDC:   2.50e+02    2.50e+02    2.50e+02    2.50e+02    2.50e+02
Gm:       1.98e-04    1.96e-04    2.00e-04    1.95e-04    1.98e-04
Rpi:      1.26e+06    1.27e+06    1.25e+06    1.28e+06    1.26e+06
Rx:       0.00e+00    0.00e+00    0.00e+00    0.00e+00    0.00e+00
Ro:       7.69e+21    7.85e+21    1.08e+15    1.15e+15    2.14e+17
Cbe:      0.00e+00    0.00e+00    0.00e+00    0.00e+00    0.00e+00
Cbc:      0.00e+00    0.00e+00    0.00e+00    0.00e+00    0.00e+00
Cjs:      0.00e+00    0.00e+00    0.00e+00    0.00e+00    0.00e+00
BetaAC:   2.50e+02    2.50e+02    2.50e+02    2.50e+02    2.50e+02
Cbx:      0.00e+00    0.00e+00    0.00e+00    0.00e+00    0.00e+00
Ft:       0.00e+00    0.00e+00    0.00e+00    0.00e+00    0.00e+00

Name:     q:u3:1      q:u2:2      q:u2:1      q:u1:2      q:u1:1
Model:     u3:qx       u2:qx       u2:qx       u1:qx       u1:qx
Ib:      -2.03e-08   -2.05e-08   -2.03e-08   -2.05e-08   -2.03e-08
Ic:      -5.09e-06   -5.12e-06   -5.08e-06   -5.11e-06   -5.08e-06
Vbe:     -5.84e-01   -5.84e-01   -5.84e-01   -5.84e-01   -5.84e-01
Vbc:      2.28e-01    3.61e-01    3.62e-01    4.96e-01    4.97e-01
Vce:     -8.12e-01   -9.45e-01   -9.45e-01   -1.08e+00   -1.08e+00
BetaDC:   2.50e+02    2.50e+02    2.50e+02    2.50e+02    2.50e+02
Gm:       1.97e-04    1.98e-04    1.97e-04    1.98e-04    1.96e-04
Rpi:      1.27e+06    1.26e+06    1.27e+06    1.26e+06    1.27e+06
Rx:       0.00e+00    0.00e+00    0.00e+00    0.00e+00    0.00e+00
Ro:       2.19e+17    3.73e+19    3.80e+19    6.98e+21    7.12e+21
Cbe:      0.00e+00    0.00e+00    0.00e+00    0.00e+00    0.00e+00
Cbc:      0.00e+00    0.00e+00    0.00e+00    0.00e+00    0.00e+00
Cjs:      0.00e+00    0.00e+00    0.00e+00    0.00e+00    0.00e+00
BetaAC:   2.50e+02    2.50e+02    2.50e+02    2.50e+02    2.50e+02
Cbx:      0.00e+00    0.00e+00    0.00e+00    0.00e+00    0.00e+00
Ft:       0.00e+00    0.00e+00    0.00e+00    0.00e+00    0.00e+00

Name:       q9          q6          q5          q8          q7
Model:    bc547b      2n3019      d45h11      bc547c      bc547c
Ib:       3.75e-06    2.67e-05   -5.57e-03    2.30e-06    2.29e-06
Ic:       1.07e-03    5.57e-03   -5.35e-01    1.04e-03    1.06e-03
Vbe:      6.41e-01    6.90e-01   -5.02e-01    6.23e-01    6.23e-01
Vbc:     -5.36e-01   -5.01e+00    5.70e+00    0.00e+00   -1.26e+00
Vce:      1.18e+00    5.70e+00   -6.21e+00    6.23e-01    1.88e+00
BetaDC:   2.85e+02    2.09e+02    9.60e+01    4.52e+02    4.63e+02
Gm:       4.06e-02    2.14e-01    2.34e+01    3.94e-02    4.04e-02
Rpi:      6.96e+03    9.69e+02    3.95e+00    1.14e+04    1.14e+04
Rx:       1.00e+00    1.00e+01    2.14e+00    1.00e+00    1.00e+00
Ro:       5.82e+04    1.89e+04    3.02e+01    5.06e+04    5.06e+04
Cbe:      6.42e-11    2.41e-10    9.35e-08    5.05e-11    5.09e-11
Cbc:      1.80e-12    7.68e-12    2.11e-10    2.74e-12    1.58e-12
Cjs:      0.00e+00    0.00e+00    0.00e+00    0.00e+00    0.00e+00
BetaAC:   2.83e+02    2.07e+02    9.26e+01    4.49e+02    4.60e+02
Cbx:      1.10e-12    0.00e+00    5.17e-11    1.69e-12    9.68e-13
Ft:       9.63e+07    1.37e+08    3.98e+07    1.14e+08    1.20e+08

Name:       q2          q1          q4          q3
Model:    bc547c      bc547c      bc557c      bc557c
Ib:      -2.60e-12    2.19e-06   -2.05e-06   -2.38e-06
Ic:       1.01e-12    1.06e-03   -1.10e-03   -1.06e-03
Vbe:     -1.58e+00    6.22e-01   -6.16e-01   -6.20e-01
Vbc:     -9.87e-01   -3.57e+00    4.79e+00    0.00e+00
Vce:     -5.95e-01    4.20e+00   -5.41e+00   -6.20e-01
BetaDC:  -3.90e-01    4.83e+02    5.34e+02    4.44e+02
Gm:      -9.87e-29    4.03e-02    4.13e-02    3.97e-02
Rpi:      1.00e+12    1.19e+04    1.29e+04    1.11e+04
Rx:       1.00e+00    1.00e+00    1.00e+00    1.00e+00
Ro:       1.01e+28    5.29e+04    2.60e+04    2.24e+04
Cbe:      7.80e-12    5.08e-11    5.34e-11    5.27e-11
Cbc:      1.67e-12    1.21e-12    1.79e-12    4.91e-12
Cjs:      0.00e+00    0.00e+00    0.00e+00    0.00e+00
BetaAC:  -9.87e-17    4.80e+02    5.32e+02    4.40e+02
Cbx:      1.02e-12    7.43e-13    1.05e-12    2.90e-12
Ft:       1.52e-02    1.22e+08    1.17e+08    1.04e+08



vo1rc: v(vo)=5.00123 at 100
vo2rc: v(vo)=4.90091 at 5
io1rc: i(rl)=0.0500123 at 100
io2rc: i(rl)=0.98076 at 5
regcar: (-(vo2rc-vo1rc)/(io2rc-io1rc))=0.10779


Date: Thu Mar 27 22:32:51 2025
Total elapsed time: 47.746 seconds.

tnom = 27
temp = 27
method = trap
totiter = 1689
traniter = 0
tranpoints = 0
accept = 0
rejected = 0
matrix size = 172
fillins = 1627
solver = Normal
Matrix Compiler1: 268.69 KB object code size
Matrix Compiler2: 41.24 KB object code size  7.3/4.6/[3.2]

