Circuit: * C:\Users\Lionheart\Documents\GitHub\Taller-de-Circuitos-Electronicos-TPI\Checkpoint 1\Version 3.5 - Limitador de Corriente y etapa amplificadora adicional\Version 3.5.asc

Warning: Multiple definitions of model "2scr375p" Type: BJT
Warning: Multiple definitions of model "bc857b" Type: BJT
Warning: Multiple definitions of model "bc847c" Type: BJT
Warning: Multiple definitions of model "bc847b" Type: BJT
Early termination of direct N-R iteration.
Direct Newton iteration failed to find .op point.  (Use ".option noopiter" to skip.)
Starting Gmin stepping
Gmin = 10
vernier = 0.5
Gmin = 1.86414
vernier = 0.25
vernier = 0.125
vernier = 0.0625
vernier = 0.03125
vernier = 0.015625
Gmin = 2.06489
vernier = 0.0078125
vernier = 0.00390625
vernier = 0.00195313
vernier = 0.000976563
vernier = 0.000488281
Gmin = 0
Gmin stepping succeeded in finding the operating point.

Semiconductor Device Operating Points:
                        --- Diodes ---
Name:    d:u5:p      d:u5:ln     d:u5:lp     d:u5:e      d:u5:c
Model:    u5:dx       u5:dx       u5:dx       u5:dx       u5:dx
Id:     -5.00e-12   -4.00e-11   -4.00e-11   -2.40e-13   -2.06e-12
Vd:     -5.00e+00   -4.00e+01   -4.00e+01   -2.40e-01   -2.06e+00
Req:     1.00e+12    1.00e+12    1.00e+12    1.00e+12    1.00e+12
CAP:     0.00e+00    0.00e+00    0.00e+00    0.00e+00    0.00e+00

Name:    d:u4:p      d:u4:ln     d:u4:lp     d:u4:e      d:u4:c
Model:    u4:dx       u4:dx       u4:dx       u4:dx       u4:dx
Id:     -5.00e-12   -4.00e-11   -4.00e-11    3.90e-09   -2.70e-12
Vd:     -5.00e+00   -4.00e+01   -4.00e+01    3.98e-01   -2.70e+00
Req:     1.00e+12    1.00e+12    1.00e+12    6.63e+06    1.00e+12
CAP:     0.00e+00    0.00e+00    0.00e+00    0.00e+00    0.00e+00

Name:    d:u3:p      d:u3:ln     d:u3:lp     d:u3:e      d:u3:c
Model:    u3:dx       u3:dx       u3:dx       u3:dx       u3:dx
Id:     -5.00e-12   -4.00e-11   -4.00e-11   -3.81e-15   -2.30e-12
Vd:     -5.00e+00   -4.00e+01   -4.00e+01   -3.70e-03   -2.30e+00
Req:     1.00e+12    1.00e+12    1.00e+12    9.74e+11    1.00e+12
CAP:     0.00e+00    0.00e+00    0.00e+00    0.00e+00    0.00e+00

Name:    d:u2:p      d:u2:ln     d:u2:lp     d:u2:e      d:u2:c
Model:    u2:dx       u2:dx       u2:dx       u2:dx       u2:dx
Id:     -5.00e-12   -4.00e-11   -4.00e-11    1.90e-12   -2.50e-12
Vd:     -5.00e+00   -4.00e+01   -4.00e+01    1.98e-01   -2.50e+00
Req:     1.00e+12    1.00e+12    1.00e+12    1.50e+10    1.00e+12
CAP:     0.00e+00    0.00e+00    0.00e+00    0.00e+00    0.00e+00

Name:    d:u1:p      d:u1:ln     d:u1:lp     d:u1:e      d:u1:c
Model:    u1:dx       u1:dx       u1:dx       u1:dx       u1:dx
Id:     -5.00e-12   -4.14e-11   -3.86e-11   -2.90e-12    7.99e-06
Vd:     -5.00e+00   -4.14e+01   -3.86e+01   -2.90e+00    5.96e-01
Req:     1.00e+12    1.00e+12    1.00e+12    1.00e+12    3.24e+03
CAP:     0.00e+00    0.00e+00    0.00e+00    0.00e+00    0.00e+00

                        --- Bipolar Transistors ---
Name:     q:u5:2      q:u5:1      q:u4:2      q:u4:1      q:u3:2
Model:     u5:qx       u5:qx       u4:qx       u4:qx       u3:qx
Ib:      -2.01e-08   -2.01e-08   -2.02e-08   -2.01e-08   -2.02e-08
Ic:      -5.03e-06   -5.02e-06   -5.05e-06   -5.03e-06   -5.05e-06
Vbe:     -5.84e-01   -5.84e-01   -5.84e-01   -5.84e-01   -5.84e-01
Vbc:      7.99e-01    7.99e-01    1.61e-01    1.62e-01    2.63e-01
Vce:     -1.38e+00   -1.38e+00   -7.45e-01   -7.45e-01   -8.46e-01
BetaDC:   2.50e+02    2.50e+02    2.50e+02    2.50e+02    2.50e+02
Gm:       1.95e-04    1.94e-04    1.95e-04    1.95e-04    1.95e-04
Rpi:      1.29e+06    1.29e+06    1.28e+06    1.28e+06    1.28e+06
Rx:       0.00e+00    0.00e+00    0.00e+00    0.00e+00    0.00e+00
Ro:       8.37e+26    8.42e+26    1.65e+16    1.67e+16    8.29e+17
Cbe:      0.00e+00    0.00e+00    0.00e+00    0.00e+00    0.00e+00
Cbc:      0.00e+00    0.00e+00    0.00e+00    0.00e+00    0.00e+00
Cjs:      0.00e+00    0.00e+00    0.00e+00    0.00e+00    0.00e+00
BetaAC:   2.50e+02    2.50e+02    2.50e+02    2.50e+02    2.50e+02
Cbx:      0.00e+00    0.00e+00    0.00e+00    0.00e+00    0.00e+00
Ft:       0.00e+00    0.00e+00    0.00e+00    0.00e+00    0.00e+00

Name:     q:u3:1      q:u2:2      q:u2:1      q:u1:2      q:u1:1
Model:     u3:qx       u2:qx       u2:qx       u1:qx       u1:qx
Ib:      -2.01e-08   -2.02e-08   -2.01e-08   -5.35e-11   -4.02e-08
Ic:      -5.03e-06   -5.04e-06   -5.03e-06   -1.35e-08   -1.00e-05
Vbe:     -5.84e-01   -5.84e-01   -5.84e-01   -4.30e-01   -6.01e-01
Vbc:      2.63e-01    3.62e-01    3.62e-01    8.31e-01    5.52e-01
Vce:     -8.46e-01   -9.45e-01   -9.45e-01   -1.26e+00   -1.15e+00
BetaDC:   2.50e+02    2.50e+02    2.50e+02    2.52e+02    2.50e+02
Gm:       1.95e-04    1.95e-04    1.95e-04    5.21e-07    3.88e-04
Rpi:      1.28e+06    1.28e+06    1.29e+06    4.79e+08    6.44e+05
Rx:       0.00e+00    0.00e+00    0.00e+00    0.00e+00    0.00e+00
Ro:       8.36e+17    3.81e+19    3.84e+19    2.93e+27    6.10e+22
Cbe:      0.00e+00    0.00e+00    0.00e+00    0.00e+00    0.00e+00
Cbc:      0.00e+00    0.00e+00    0.00e+00    0.00e+00    0.00e+00
Cjs:      0.00e+00    0.00e+00    0.00e+00    0.00e+00    0.00e+00
BetaAC:   2.50e+02    2.50e+02    2.50e+02    2.50e+02    2.50e+02
Cbx:      0.00e+00    0.00e+00    0.00e+00    0.00e+00    0.00e+00
Ft:       0.00e+00    0.00e+00    0.00e+00    0.00e+00    0.00e+00

Name:       q9          q6          q5          q10         q8
Model:    bc547b      2n3019      d45h11      bc547c      bc547c
Ib:       1.32e-03    4.37e-05   -9.04e-03    4.40e-02    2.30e-06
Ic:       1.31e-01    9.04e-03   -8.31e-01   -4.31e-02    1.04e-03
Vbe:      8.48e-01    7.03e-01   -5.19e-01    8.24e-01    6.23e-01
Vbc:      5.49e-01   -4.66e+00    5.36e+00    8.74e-01    0.00e+00
Vce:      2.99e-01    5.36e+00   -5.88e+00   -4.98e-02    6.23e-01
BetaDC:   9.94e+01    2.07e+02    9.19e+01   -9.79e-01    4.52e+02
Gm:       3.34e+00    3.46e-01    3.58e+01    4.50e-02    3.94e-02
Rpi:      2.73e+01    5.92e+02    2.43e+00    2.74e+01    1.14e+04
Rx:       1.00e+00    1.00e+01    2.04e+00    1.00e+00    1.00e+00
Ro:       1.53e+01    1.16e+04    1.90e+01    1.96e-01    5.06e+04
Cbe:      5.20e-08    3.47e-10    1.43e-07    1.13e-07    5.05e-11
Cbc:      3.44e-11    7.86e-12    2.14e-10    2.23e-11    2.74e-12
Cjs:      0.00e+00    0.00e+00    0.00e+00    0.00e+00    0.00e+00
BetaAC:   9.11e+01    2.05e+02    8.70e+01    1.23e+00    4.49e+02
Cbx:      2.12e-11    0.00e+00    5.25e-11    1.45e-11    1.69e-12
Ft:       1.02e+07    1.55e+08    3.98e+07    3.71e+04    1.14e+08

Name:       q7          q2          q1          q11         q4
Model:    bc547c      bc547c      bc547c      bc557c      bc557c
Ib:       2.29e-06    6.32e-04   -7.60e-12   -4.30e-04    4.57e-12
Ic:       1.06e-03    4.30e-04    6.23e-12   -8.82e-02   -1.74e-11
Vbe:      6.23e-01    6.73e-01   -1.37e+00   -8.07e-01   -1.36e-01
Vbc:     -1.20e+00    6.73e-01   -6.20e+00    2.01e-01    4.84e+00
Vce:      1.83e+00   -4.39e-04    4.84e+00   -1.01e+00   -4.97e+00
BetaDC:   4.63e+02    6.81e-01   -8.20e-01    2.05e+02   -3.82e+00
Gm:       4.03e-02    3.87e-02    3.87e-35    2.16e+00    4.79e-10
Rpi:      1.14e+04    1.73e+03    1.00e+12    6.08e+01    1.59e+11
Rx:       1.00e+00    1.00e+00    1.00e+00    1.00e+00    1.00e+00
Ro:       5.06e+04    5.04e+00    0.00e+00    2.64e+02    2.42e+12
Cbe:      5.09e-11    1.46e-10    8.09e-12    4.57e-09    1.47e-11
Cbc:      1.59e-12    1.90e-11    1.04e-12    4.43e-12    1.78e-12
Cjs:      0.00e+00    0.00e+00    0.00e+00    0.00e+00    0.00e+00
BetaAC:   4.60e+02    6.70e+01    3.87e-23    1.31e+02    7.62e+01
Cbx:      9.78e-13    1.17e-11    6.41e-13    2.62e-12    1.05e-12
Ft:       1.20e+08    3.48e+07    1.63e-02    7.51e+07    4.34e+00

Name:       q3
Model:    bc557c
Ib:      -3.15e-13
Ic:      -1.05e-11
Vbe:     -1.36e-01
Vbc:      0.00e+00
Vce:     -1.36e-01
BetaDC:   3.33e+01
Gm:       4.00e-10
Rpi:      1.59e+11
Rx:       1.00e+00
Ro:       3.84e+11
Cbe:      1.47e-11
Cbc:      4.90e-12
Cjs:      0.00e+00
BetaAC:   6.37e+01
Cbx:      2.90e-12
Ft:       2.83e+00



vo1rc: v(vo)=5.00085 at 100
vo2rc: v(vo)=4.90762 at 5
io1rc: i(rl)=0.0500085 at 100
io2rc: i(rl)=0.982105 at 5
regcar: (-(vo2rc-vo1rc)/(io2rc-io1rc))=0.10002


Date: Thu Mar 27 22:09:17 2025
Total elapsed time: 42.377 seconds.

tnom = 27
temp = 27
method = trap
totiter = 1783
traniter = 0
tranpoints = 0
accept = 0
rejected = 0
matrix size = 181
fillins = 1684
solver = Normal
Matrix Compiler1: 273.15 KB object code size
Matrix Compiler2: 43.30 KB object code size  7.3/4.7/[2.8]

