Circuit: * C:\Users\dbata\OneDrive\Escritorio\Checkpoint 1\Par Diferencial\TBJ.asc

Warning: Multiple definitions of model "2scr375p" Type: BJT
Warning: Multiple definitions of model "bc857b" Type: BJT
Warning: Multiple definitions of model "bc847c" Type: BJT
Warning: Multiple definitions of model "bc847b" Type: BJT
Direct Newton iteration for .op point succeeded.
Semiconductor Device Operating Points:
                        --- Bipolar Transistors ---
Name:       q6          q5          q2          q1          q4
Model:    bc547c      bc547c      bc547c      bc547c      bc557c
Ib:       2.21e-06    2.21e-06    1.09e-06    1.09e-06   -1.35e-06
Ic:       1.00e-03    1.20e-03    6.01e-04    6.02e-04   -6.01e-04
Vbe:      6.22e-01    6.22e-01    6.03e-01    6.03e-01   -6.05e-01
Vbc:      0.00e+00   -1.08e+01   -1.13e+01   -1.14e+01    9.05e-02
Vce:      6.22e-01    1.14e+01    1.19e+01    1.20e+01   -6.95e-01
BetaDC:   4.52e+02    5.45e+02    5.51e+02    5.52e+02    4.46e+02
Gm:       3.80e-02    4.58e-02    2.29e-02    2.29e-02    2.27e-02
Rpi:      1.18e+04    1.18e+04    2.40e+04    2.40e+04    1.97e+04
Rx:       1.00e+00    1.00e+00    1.00e+00    1.00e+00    1.00e+00
Ro:       5.25e+04    5.26e+04    1.06e+05    1.06e+05    3.96e+04
Cbe:      4.98e-11    5.34e-11    4.15e-11    4.15e-11    4.33e-11
Cbc:      2.74e-12    8.98e-13    8.86e-13    8.84e-13    4.60e-12
Cjs:      0.00e+00    0.00e+00    0.00e+00    0.00e+00    0.00e+00
BetaAC:   4.50e+02    5.42e+02    5.50e+02    5.51e+02    4.46e+02
Cbx:      1.69e-12    5.52e-13    5.45e-13    5.43e-13    2.71e-12
Ft:       1.12e+08    1.33e+08    8.49e+07    8.50e+07    7.15e+07

Name:       q3
Model:    bc557c
Ib:      -1.35e-06
Ic:      -5.99e-04
Vbe:     -6.05e-01
Vbc:      0.00e+00
Vce:     -6.05e-01
BetaDC:   4.45e+02
Gm:       2.26e-02
Rpi:      1.96e+04
Rx:       1.00e+00
Ro:       3.96e+04
Cbe:      4.32e-11
Cbc:      4.91e-12
Cjs:      0.00e+00
BetaAC:   4.45e+02
Cbx:      2.90e-12
Ft:       7.06e+07



Date: Mon Mar 24 17:33:20 2025
Total elapsed time: 0.024 seconds.

tnom = 27
temp = 27
method = trap
totiter = 7
traniter = 0
tranpoints = 0
accept = 0
rejected = 0
matrix size = 40
fillins = 10
solver = Normal
Matrix Compiler1:     171 opcodes
Matrix Compiler2: 3.38 KB object code size
