time	V(vo)	V(vregp)	I(Rl)
0.000000000000000e+000	1.834155e-025	0.000000e+000	3.668310e-027
1.000000000000000e-003	-1.221390e-022	0.000000e+000	-2.442779e-024
1.000002025000007e-003	1.068541e-003	9.499710e+000	2.137081e-005
1.000002025123603e-003	1.068606e-003	9.500000e+000	2.137212e-005
1.000002025370795e-003	1.068736e-003	9.500000e+000	2.137472e-005
1.000002025865180e-003	1.068996e-003	9.500000e+000	2.137992e-005
1.000002026853950e-003	1.069515e-003	9.500000e+000	2.139030e-005
1.000002028831489e-003	1.070548e-003	9.500000e+000	2.141096e-005
1.000002032786567e-003	1.072598e-003	9.500000e+000	2.145196e-005
1.000002037882719e-003	1.075214e-003	9.500000e+000	2.150428e-005
1.000002043102245e-003	1.077863e-003	9.500000e+000	2.155725e-005
1.000002049381598e-003	1.081006e-003	9.500000e+000	2.162011e-005
1.000002058344198e-003	1.085426e-003	9.500000e+000	2.170851e-005
1.000002066557881e-003	1.089409e-003	9.500000e+000	2.178817e-005
1.000002076559907e-003	1.094168e-003	9.500000e+000	2.188335e-005
1.000002087520871e-003	1.099275e-003	9.500000e+000	2.198550e-005
1.000002100885236e-003	1.105353e-003	9.500000e+000	2.210705e-005
1.000002116303555e-003	1.112163e-003	9.500000e+000	2.224325e-005
1.000002136359804e-003	1.120707e-003	9.500000e+000	2.241413e-005
1.000002161553716e-003	1.130945e-003	9.500000e+000	2.261890e-005
1.000002197859307e-003	1.144766e-003	9.500000e+000	2.289532e-005
1.000002251298887e-003	1.163145e-003	9.500000e+000	2.326290e-005
1.000002350869380e-003	1.191900e-003	9.500000e+000	2.383800e-005
1.000002550010366e-003	1.236782e-003	9.500000e+000	2.473565e-005
1.000002755852763e-003	1.270919e-003	9.500000e+000	2.541838e-005
1.000002959895025e-003	1.295039e-003	9.500000e+000	2.590078e-005
1.000003175770359e-003	1.314103e-003	9.500000e+000	2.628205e-005
1.000003403867595e-003	1.330094e-003	9.500000e+000	2.660188e-005
1.000003640349759e-003	1.344065e-003	9.500000e+000	2.688129e-005
1.000003890227524e-003	1.357190e-003	9.500000e+000	2.714381e-005
1.000004185775841e-003	1.371598e-003	9.500000e+000	2.743197e-005
1.000004519606707e-003	1.387164e-003	9.500000e+000	2.774327e-005
1.000004963494246e-003	1.407354e-003	9.500000e+000	2.814707e-005
1.000005494345034e-003	1.431210e-003	9.500000e+000	2.862420e-005
1.000006317406659e-003	1.467994e-003	9.500000e+000	2.935989e-005
1.000007148660518e-003	1.505055e-003	9.500000e+000	3.010110e-005
1.000007854138045e-003	1.536460e-003	9.500000e+000	3.072921e-005
1.000008567300680e-003	1.568173e-003	9.500000e+000	3.136345e-005
1.000009348188121e-003	1.602862e-003	9.500000e+000	3.205725e-005
1.000010356785826e-003	1.647627e-003	9.500000e+000	3.295253e-005
1.000011416653421e-003	1.694623e-003	9.500000e+000	3.389247e-005
1.000012654257783e-003	1.749452e-003	9.500000e+000	3.498903e-005
1.000013902036424e-003	1.804681e-003	9.500000e+000	3.609361e-005
1.000015293973677e-003	1.866236e-003	9.500000e+000	3.732471e-005
1.000016717964662e-003	1.929153e-003	9.500000e+000	3.858306e-005
1.000018774917979e-003	2.019960e-003	9.500000e+000	4.039919e-005
1.000021426358051e-003	2.136929e-003	9.500000e+000	4.273858e-005
1.000023488429380e-003	2.227841e-003	9.500000e+000	4.455683e-005
1.000025989712559e-003	2.338055e-003	9.500000e+000	4.676110e-005
1.000028472246896e-003	2.447374e-003	9.500000e+000	4.894748e-005
1.000031645475442e-003	2.586993e-003	9.500000e+000	5.173986e-005
1.000035402431389e-003	2.752120e-003	9.500000e+000	5.504240e-005
1.000039490624554e-003	2.931565e-003	9.500000e+000	5.863131e-005
1.000044182063875e-003	3.137146e-003	9.500000e+000	6.274293e-005
1.000050220861841e-003	3.401202e-003	9.500000e+000	6.802404e-005
1.000058768947812e-003	3.773853e-003	9.500000e+000	7.547706e-005
1.000072186170048e-003	4.355973e-003	9.500000e+000	8.711946e-005
1.000096054945196e-003	5.382638e-003	9.500000e+000	1.076528e-004
1.000143792495491e-003	7.410487e-003	9.500000e+000	1.482097e-004
1.000193975792524e-003	9.505587e-003	9.500000e+000	1.901117e-004
1.000259967134166e-003	1.220116e-002	9.500000e+000	2.440231e-004
1.000332099108770e-003	1.506723e-002	9.500000e+000	3.013447e-004
1.000443523060418e-003	1.933573e-002	9.500000e+000	3.867146e-004
1.000590548982525e-003	2.466755e-002	9.500000e+000	4.933510e-004
1.000861364000293e-003	3.359143e-002	9.500000e+000	6.718286e-004
1.001402994035829e-003	4.895367e-002	9.500000e+000	9.790735e-004
1.002129040563907e-003	6.572527e-002	9.500000e+000	1.314505e-003
1.002849345167540e-003	7.857665e-002	9.500000e+000	1.571533e-003
1.003607830481294e-003	8.879364e-002	9.500000e+000	1.775873e-003
1.004258701211177e-003	9.557726e-002	9.500000e+000	1.911545e-003
1.004615601482157e-003	9.855627e-002	9.500000e+000	1.971126e-003
1.004924346740994e-003	1.007074e-001	9.500000e+000	2.014149e-003
1.005271876610475e-003	1.027746e-001	9.500000e+000	2.055493e-003
1.005742494095113e-003	1.050647e-001	9.500000e+000	2.101294e-003
1.006504797736089e-003	1.078629e-001	9.500000e+000	2.157258e-003
1.007504797736089e-003	1.103633e-001	9.500000e+000	2.207266e-003
1.008504797736089e-003	1.118491e-001	9.500000e+000	2.236982e-003
1.009504797736089e-003	1.125742e-001	9.500000e+000	2.251484e-003
1.010504797736089e-003	1.127891e-001	9.500000e+000	2.255782e-003
1.011504797736089e-003	1.126637e-001	9.500000e+000	2.253274e-003
1.012504797736089e-003	1.123120e-001	9.500000e+000	2.246241e-003
1.013504797736089e-003	1.118184e-001	9.500000e+000	2.236369e-003
1.014114688918994e-003	1.114666e-001	9.500000e+000	2.229332e-003
1.014437432074470e-003	1.112648e-001	9.500000e+000	2.225296e-003
1.014789525340523e-003	1.110354e-001	9.500000e+000	2.220707e-003
1.015221674123501e-003	1.107463e-001	9.500000e+000	2.214927e-003
1.015660843527233e-003	1.104481e-001	9.500000e+000	2.208961e-003
1.016373087381899e-003	1.099835e-001	9.500000e+000	2.199670e-003
1.017373087381899e-003	1.094981e-001	9.500000e+000	2.189962e-003
1.018268153439866e-003	1.096738e-001	9.500000e+000	2.193475e-003
1.019225893580854e-003	1.114381e-001	9.500000e+000	2.228762e-003
1.020098784853277e-003	1.151489e-001	9.500000e+000	2.302978e-003
1.020591720913424e-003	1.186181e-001	9.500000e+000	2.372362e-003
1.021065105867133e-003	1.231456e-001	9.500000e+000	2.462912e-003
1.021487215551808e-003	1.280298e-001	9.500000e+000	2.560596e-003
1.021891710229999e-003	1.335932e-001	9.500000e+000	2.671863e-003
1.022700699586381e-003	1.465896e-001	9.500000e+000	2.931791e-003
1.023489366129858e-003	1.610703e-001	9.500000e+000	3.221407e-003
1.024108832499615e-003	1.737252e-001	9.500000e+000	3.474505e-003
1.024433032663938e-003	1.808465e-001	9.500000e+000	3.616931e-003
1.025219684660743e-003	1.994558e-001	9.500000e+000	3.989116e-003
1.025657607051039e-003	2.104852e-001	9.500000e+000	4.209703e-003
1.026367860822540e-003	2.293193e-001	9.500000e+000	4.586386e-003
1.027367860822540e-003	2.572782e-001	9.500000e+000	5.145564e-003
1.028367860822540e-003	2.867224e-001	9.500000e+000	5.734447e-003
1.029367860822540e-003	3.175361e-001	9.500000e+000	6.350721e-003
1.030367860822540e-003	3.494939e-001	9.500000e+000	6.989877e-003
1.031367860822540e-003	3.824048e-001	9.500000e+000	7.648097e-003
1.033367860822540e-003	4.504274e-001	9.500000e+000	9.008547e-003
1.034742071205329e-003	4.984620e-001	9.500000e+000	9.969240e-003
1.036326520269092e-003	5.549097e-001	9.500000e+000	1.109819e-002
1.037326520269092e-003	5.909143e-001	9.500000e+000	1.181829e-002
1.038326520269092e-003	6.271315e-001	9.500000e+000	1.254263e-002
1.039326520269092e-003	6.635364e-001	9.500000e+000	1.327073e-002
1.040326520269092e-003	7.000886e-001	9.500000e+000	1.400177e-002
1.041326520269092e-003	7.367539e-001	9.500000e+000	1.473508e-002
1.042326520269092e-003	7.735043e-001	9.500000e+000	1.547009e-002
1.044386303539184e-003	8.493701e-001	9.500000e+000	1.698740e-002
1.046784639151993e-003	9.379622e-001	9.500000e+000	1.875924e-002
1.049182974764802e-003	1.026415e+000	9.500000e+000	2.052830e-002
1.051581310377611e-003	1.114729e+000	9.500000e+000	2.229458e-002
1.053979645990419e-003	1.202903e+000	9.500000e+000	2.405806e-002
1.056377981603228e-003	1.290938e+000	9.500000e+000	2.581877e-002
1.058776317216037e-003	1.378835e+000	9.500000e+000	2.757669e-002
1.061174652828846e-003	1.466591e+000	9.500000e+000	2.933183e-002
1.067603749447259e-003	1.700520e+000	9.500000e+000	3.401041e-002
1.074032846065672e-003	1.933912e+000	9.500000e+000	3.867824e-002
1.080461942684086e-003	2.166767e+000	9.500000e+000	4.333534e-002
1.086891039302499e-003	2.399085e+000	9.500000e+000	4.798169e-002
1.093320135920912e-003	2.630865e+000	9.500000e+000	5.261730e-002
1.099749232539325e-003	2.862108e+000	9.500000e+000	5.724217e-002
1.106178329157738e-003	3.092815e+000	9.500000e+000	6.185630e-002
1.107806264830723e-003	3.151272e+000	9.500000e+000	6.302545e-002
1.109434200503707e-003	3.209718e+000	9.500000e+000	6.419435e-002
1.111062136176691e-003	3.268150e+000	9.500000e+000	6.536300e-002
1.112690071849675e-003	3.326570e+000	9.500000e+000	6.653139e-002
1.114318007522659e-003	3.384977e+000	9.500000e+000	6.769954e-002
1.115945943195644e-003	3.443372e+000	9.500000e+000	6.886743e-002
1.117573878868628e-003	3.501754e+000	9.500000e+000	7.003508e-002
1.118573878868628e-003	3.537611e+000	9.500000e+000	7.075223e-002
1.119573878868628e-003	3.573464e+000	9.500000e+000	7.146929e-002
1.120573878868628e-003	3.609313e+000	9.500000e+000	7.218626e-002
1.121573878868628e-003	3.645157e+000	9.500000e+000	7.290315e-002
1.122573878868627e-003	3.680997e+000	9.500000e+000	7.361993e-002
1.123573878868627e-003	3.716831e+000	9.500000e+000	7.433663e-002
1.124140819687185e-003	3.737145e+000	9.500000e+000	7.474290e-002
1.124457075800835e-003	3.748475e+000	9.500000e+000	7.496951e-002
1.124813358187807e-003	3.761239e+000	9.500000e+000	7.522477e-002
1.125230561510744e-003	3.776183e+000	9.500000e+000	7.552365e-002
1.125675300939260e-003	3.792110e+000	9.500000e+000	7.584221e-002
1.126396429307202e-003	3.817930e+000	9.500000e+000	7.635859e-002
1.127396429307202e-003	3.853714e+000	9.500000e+000	7.707427e-002
1.128396429307202e-003	3.889460e+000	9.500000e+000	7.778920e-002
1.129396429307202e-003	3.925135e+000	9.500000e+000	7.850271e-002
1.130396429307202e-003	3.960677e+000	9.500000e+000	7.921354e-002
1.131396429307202e-003	3.995974e+000	9.500000e+000	7.991948e-002
1.132396429307202e-003	4.030838e+000	9.500000e+000	8.061676e-002
1.133396429307202e-003	4.065084e+000	9.500000e+000	8.130167e-002
1.134073395493443e-003	4.087789e+000	9.500000e+000	8.175578e-002
1.135207664933501e-003	4.124154e+000	9.500000e+000	8.248308e-002
1.135638052120263e-003	4.137282e+000	9.500000e+000	8.274563e-002
1.136336272772825e-003	4.157612e+000	9.500000e+000	8.315225e-002
1.137336272772824e-003	4.184952e+000	9.500000e+000	8.369904e-002
1.138336272772824e-003	4.210159e+000	9.500000e+000	8.420319e-002
1.139336272772824e-003	4.233134e+000	9.500000e+000	8.466269e-002
1.140336272772824e-003	4.254068e+000	9.500000e+000	8.508137e-002
1.141336272772824e-003	4.273230e+000	9.500000e+000	8.546460e-002
1.142336272772824e-003	4.290918e+000	9.500000e+000	8.581836e-002
1.143336272772824e-003	4.307482e+000	9.500000e+000	8.614963e-002
1.144389119425151e-003	4.323946e+000	9.500000e+000	8.647890e-002
1.145625328278301e-003	4.342134e+000	9.500000e+000	8.684266e-002
1.147315711220305e-003	4.365829e+000	9.500000e+000	8.731659e-002
1.148315711220305e-003	4.379437e+000	9.500000e+000	8.758874e-002
1.150315711220305e-003	4.405884e+000	9.500000e+000	8.811768e-002
1.153315711220305e-003	4.443932e+000	9.500000e+000	8.887864e-002
1.155209747522376e-003	4.466923e+000	9.500000e+000	8.933846e-002
1.157103783824447e-003	4.489054e+000	9.500000e+000	8.978108e-002
1.158997820126518e-003	4.510325e+000	9.500000e+000	9.020650e-002
1.160891856428589e-003	4.530735e+000	9.500000e+000	9.061470e-002
1.162785892730660e-003	4.550285e+000	9.500000e+000	9.100571e-002
1.164679929032731e-003	4.568975e+000	9.500000e+000	9.137951e-002
1.166573965334803e-003	4.586805e+000	9.500000e+000	9.173610e-002
1.170397153532368e-003	4.620077e+000	9.500000e+000	9.240154e-002
1.174220341729934e-003	4.651062e+000	9.500000e+000	9.302125e-002
1.178043529927499e-003	4.679761e+000	9.500000e+000	9.359523e-002
1.181866718125065e-003	4.706174e+000	9.500000e+000	9.412348e-002
1.185689906322630e-003	4.730300e+000	9.500000e+000	9.460600e-002
1.189513094520196e-003	4.752139e+000	9.500000e+000	9.504279e-002
1.193336282717761e-003	4.771693e+000	9.500000e+000	9.543385e-002
1.197370237777960e-003	4.790696e+000	9.500000e+000	9.581393e-002
1.201404192838158e-003	4.808342e+000	9.500000e+000	9.616683e-002
1.205438147898356e-003	4.824628e+000	9.500000e+000	9.649257e-002
1.209472102958555e-003	4.839557e+000	9.500000e+000	9.679114e-002
1.213506058018754e-003	4.853127e+000	9.500000e+000	9.706255e-002
1.217540013078952e-003	4.865339e+000	9.500000e+000	9.730678e-002
1.221573968139150e-003	4.876193e+000	9.500000e+000	9.752385e-002
1.225537074796168e-003	4.886033e+000	9.500000e+000	9.772065e-002
1.229500181453185e-003	4.895178e+000	9.500000e+000	9.790355e-002
1.233463288110202e-003	4.903628e+000	9.500000e+000	9.807256e-002
1.237426394767220e-003	4.911384e+000	9.500000e+000	9.822767e-002
1.241389501424237e-003	4.918445e+000	9.500000e+000	9.836889e-002
1.245352608081254e-003	4.924811e+000	9.500000e+000	9.849621e-002
1.249315714738272e-003	4.930482e+000	9.500000e+000	9.860964e-002
1.253184392553915e-003	4.935603e+000	9.500000e+000	9.871206e-002
1.257053070369559e-003	4.940369e+000	9.500000e+000	9.880737e-002
1.260921748185203e-003	4.944779e+000	9.500000e+000	9.889559e-002
1.264790426000847e-003	4.948835e+000	9.500000e+000	9.897671e-002
1.268659103816490e-003	4.952536e+000	9.500000e+000	9.905072e-002
1.272527781632134e-003	4.955882e+000	9.500000e+000	9.911764e-002
1.276396459447778e-003	4.958873e+000	9.500000e+000	9.917746e-002
1.280345873794956e-003	4.961692e+000	9.500000e+000	9.923383e-002
1.284295288142135e-003	4.964312e+000	9.500000e+000	9.928624e-002
1.288244702489313e-003	4.966734e+000	9.500000e+000	9.933468e-002
1.292194116836491e-003	4.968958e+000	9.500000e+000	9.937915e-002
1.296143531183669e-003	4.970983e+000	9.500000e+000	9.941966e-002
1.300092945530848e-003	4.972810e+000	9.500000e+000	9.945620e-002
1.304042359878026e-003	4.974439e+000	9.500000e+000	9.948877e-002
1.307950088388133e-003	4.975926e+000	9.500000e+000	9.951853e-002
1.311857816898239e-003	4.977310e+000	9.500000e+000	9.954621e-002
1.315765545408346e-003	4.978591e+000	9.500000e+000	9.957181e-002
1.319673273918453e-003	4.979767e+000	9.500000e+000	9.959534e-002
1.323581002428559e-003	4.980840e+000	9.500000e+000	9.961680e-002
1.327488730938666e-003	4.981809e+000	9.500000e+000	9.963618e-002
1.331396459448773e-003	4.982674e+000	9.500000e+000	9.965348e-002
1.335365315588596e-003	4.983484e+000	9.500000e+000	9.966969e-002
1.339334171728420e-003	4.984238e+000	9.500000e+000	9.968476e-002
1.343303027868243e-003	4.984934e+000	9.500000e+000	9.969868e-002
1.347271884008067e-003	4.985573e+000	9.500000e+000	9.971146e-002
1.351240740147890e-003	4.986154e+000	9.500000e+000	9.972308e-002
1.355209596287714e-003	4.986678e+000	9.500000e+000	9.973357e-002
1.359178452427537e-003	4.987145e+000	9.500000e+000	9.974290e-002
1.363058142516620e-003	4.987568e+000	9.500000e+000	9.975135e-002
1.366937832605702e-003	4.987960e+000	9.500000e+000	9.975921e-002
1.370817522694785e-003	4.988324e+000	9.500000e+000	9.976648e-002
1.374697212783867e-003	4.988658e+000	9.500000e+000	9.977316e-002
1.378576902872949e-003	4.988962e+000	9.500000e+000	9.977925e-002
1.382456592962032e-003	4.989238e+000	9.500000e+000	9.978475e-002
1.386336283051114e-003	4.989483e+000	9.500000e+000	9.978967e-002
1.390286661772439e-003	4.989715e+000	9.500000e+000	9.979430e-002
1.394237040493764e-003	4.989930e+000	9.500000e+000	9.979860e-002
1.398187419215090e-003	4.990129e+000	9.500000e+000	9.980257e-002
1.402137797936415e-003	4.990311e+000	9.500000e+000	9.980622e-002
1.406088176657740e-003	4.990478e+000	9.500000e+000	9.980955e-002
1.410038555379065e-003	4.990628e+000	9.500000e+000	9.981255e-002
1.413988934100391e-003	4.990761e+000	9.500000e+000	9.981522e-002
1.418038555379065e-003	4.990887e+000	9.500000e+000	9.981774e-002
1.422088176657740e-003	4.991005e+000	9.500000e+000	9.982008e-002
1.426137797936415e-003	4.991113e+000	9.500000e+000	9.982225e-002
1.430187419215090e-003	4.991212e+000	9.500000e+000	9.982423e-002
1.434237040493765e-003	4.991302e+000	9.500000e+000	9.982603e-002
1.438286661772439e-003	4.991382e+000	9.500000e+000	9.982765e-002
1.442336283051114e-003	4.991454e+000	9.500000e+000	9.982909e-002
1.446370238077119e-003	4.991520e+000	9.500000e+000	9.983040e-002
1.450404193103125e-003	4.991581e+000	9.500000e+000	9.983163e-002
1.454438148129130e-003	4.991638e+000	9.500000e+000	9.983276e-002
1.458472103155136e-003	4.991690e+000	9.500000e+000	9.983379e-002
1.462506058181141e-003	4.991737e+000	9.500000e+000	9.983474e-002
1.466540013207147e-003	4.991779e+000	9.500000e+000	9.983559e-002
1.470573968233152e-003	4.991817e+000	9.500000e+000	9.983634e-002
1.474537074877270e-003	4.991851e+000	9.500000e+000	9.983702e-002
1.478500181521388e-003	4.991883e+000	9.500000e+000	9.983766e-002
1.482463288165505e-003	4.991912e+000	9.500000e+000	9.983824e-002
1.486426394809623e-003	4.991939e+000	9.500000e+000	9.983878e-002
1.490389501453741e-003	4.991964e+000	9.500000e+000	9.983927e-002
1.494352608097859e-003	4.991986e+000	9.500000e+000	9.983972e-002
1.498315714741976e-003	4.992005e+000	9.500000e+000	9.984011e-002
1.502224229723362e-003	4.992023e+000	9.500000e+000	9.984047e-002
1.506132744704749e-003	4.992040e+000	9.500000e+000	9.984080e-002
1.510041259686135e-003	4.992055e+000	9.500000e+000	9.984111e-002
1.513949774667521e-003	4.992069e+000	9.500000e+000	9.984139e-002
1.517858289648907e-003	4.992082e+000	9.500000e+000	9.984165e-002
1.521766804630293e-003	4.992094e+000	9.500000e+000	9.984188e-002
1.525675319611679e-003	4.992105e+000	9.500000e+000	9.984209e-002
1.529727753935450e-003	4.992115e+000	9.500000e+000	9.984229e-002
1.533780188259220e-003	4.992124e+000	9.500000e+000	9.984248e-002
1.537832622582991e-003	4.992132e+000	9.500000e+000	9.984265e-002
1.541885056906761e-003	4.992140e+000	9.500000e+000	9.984280e-002
1.545937491230532e-003	4.992147e+000	9.500000e+000	9.984295e-002
1.549989925554302e-003	4.992154e+000	9.500000e+000	9.984307e-002
1.554042359878073e-003	4.992159e+000	9.500000e+000	9.984319e-002
1.558235802673892e-003	4.992165e+000	9.500000e+000	9.984330e-002
1.562429245469711e-003	4.992170e+000	9.500000e+000	9.984340e-002
1.566622688265530e-003	4.992174e+000	9.500000e+000	9.984349e-002
1.570816131061349e-003	4.992179e+000	9.500000e+000	9.984357e-002
1.575009573857168e-003	4.992182e+000	9.500000e+000	9.984365e-002
1.579203016652987e-003	4.992186e+000	9.500000e+000	9.984372e-002
1.583396459448806e-003	4.992189e+000	9.500000e+000	9.984378e-002
1.587766812970461e-003	4.992192e+000	9.500000e+000	9.984383e-002
1.592137166492116e-003	4.992194e+000	9.500000e+000	9.984389e-002
1.596507520013771e-003	4.992197e+000	9.500000e+000	9.984393e-002
1.600877873535426e-003	4.992199e+000	9.500000e+000	9.984398e-002
1.605248227057081e-003	4.992201e+000	9.500000e+000	9.984402e-002
1.609618580578736e-003	4.992203e+000	9.500000e+000	9.984405e-002
1.613988934100391e-003	4.992204e+000	9.500000e+000	9.984408e-002
1.616190009150164e-003	4.992205e+000	9.500000e+000	9.984410e-002
1.618391084199938e-003	4.992206e+000	9.500000e+000	9.984411e-002
1.620592159249711e-003	4.992206e+000	9.500000e+000	9.984413e-002
1.622793234299485e-003	4.992207e+000	9.500000e+000	9.984414e-002
1.624994309349259e-003	4.992208e+000	9.500000e+000	9.984416e-002
1.627195384399032e-003	4.992208e+000	9.500000e+000	9.984417e-002
1.629396459448806e-003	4.992209e+000	9.500000e+000	9.984418e-002
1.634079601302911e-003	4.992210e+000	9.500000e+000	9.984420e-002
