Circuit: * C:\Users\dbata\OneDrive\Escritorio\Checkpoint 1\Version 1\Version 1.asc

Warning: Multiple definitions of model "2scr375p" Type: BJT
Warning: Multiple definitions of model "bc857b" Type: BJT
Warning: Multiple definitions of model "bc847c" Type: BJT
Warning: Multiple definitions of model "bc847b" Type: BJT
Direct Newton iteration for .op point succeeded.
Semiconductor Device Operating Points:
                        --- Bipolar Transistors ---
Name:       q6          q5          q9          q8          q7
Model:    2n3019      d45h11      bc547c      bc547c      bc547c
Ib:       1.89e-05   -4.13e-03    2.37e-06    2.25e-06    2.25e-06
Ic:       4.13e-03   -5.16e-01    1.09e-03    1.02e-03    1.04e-03
Vbe:      6.81e-01   -4.92e-01    6.24e-01    6.22e-01    6.22e-01
Vbc:     -9.68e+00    1.04e+01   -6.81e-01    0.00e+00   -1.26e+00
Vce:      1.04e+01   -1.09e+01    1.30e+00    6.22e-01    1.88e+00
BetaDC:   2.18e+02    1.25e+02    4.58e+02    4.52e+02    4.63e+02
Gm:       1.59e-01    2.28e+01    4.13e-02    3.86e-02    3.95e-02
Rpi:      1.37e+03    5.33e+00    1.10e+04    1.17e+04    1.17e+04
Rx:       1.00e+01    2.19e+00    1.00e+00    1.00e+00    1.00e+00
Ro:       2.65e+04    4.03e+01    4.90e+04    5.17e+04    5.17e+04
Cbe:      1.96e-10    9.05e-08    5.14e-11    5.00e-11    5.05e-11
Cbc:      6.20e-12    1.83e-10    1.81e-12    2.74e-12    1.57e-12
Cjs:      0.00e+00    0.00e+00    0.00e+00    0.00e+00    0.00e+00
BetaAC:   2.17e+02    1.21e+02    4.55e+02    4.50e+02    4.60e+02
Cbx:      0.00e+00    4.50e-11    1.11e-12    1.69e-12    9.68e-13
Ft:       1.25e+08    4.00e+07    1.21e+08    1.13e+08    1.19e+08

Name:       q2          q1          q4          q3
Model:    bc547c      bc547c      bc557c      bc557c
Ib:      -3.22e-12    1.97e-06   -1.78e-06   -2.33e-06
Ic:       1.59e-12    1.04e-03   -1.11e-03   -1.03e-03
Vbe:     -1.62e+00    6.19e-01   -6.12e-01   -6.19e-01
Vbc:     -1.57e+00   -8.78e+00    9.45e+00    0.00e+00
Vce:     -5.56e-02    9.40e+00   -1.01e+01   -6.19e-01
BetaDC:  -4.95e-01    5.28e+02    6.22e+02    4.44e+02
Gm:      -2.76e-38    3.95e-02    4.18e-02    3.89e-02
Rpi:      1.00e+12    1.33e+04    1.49e+04    1.13e+04
Rx:       1.00e+00    1.00e+00    1.00e+00    1.00e+00
Ro:       3.36e+37    5.91e+04    2.99e+04    2.29e+04
Cbe:      7.75e-12    5.02e-11    5.35e-11    5.23e-11
Cbc:      1.49e-12    9.49e-13    1.34e-12    4.91e-12
Cjs:      0.00e+00    0.00e+00    0.00e+00    0.00e+00
BetaAC:  -2.76e-26    5.26e+02    6.21e+02    4.41e+02
Cbx:      9.17e-13    5.84e-13    7.93e-13    2.90e-12
Ft:       1.57e-02    1.21e+08    1.19e+08    1.03e+08



vo1rc: v(vo)=5.01399 at 100
vo2rc: v(vo)=2.60123 at 5
io1rc: i(rl)=0.0501399 at 100
io2rc: i(rl)=0.520246 at 5
regcar: (-(vo2rc-vo1rc)/(io2rc-io1rc))=5.13238


Date: Mon Mar 24 22:57:58 2025
Total elapsed time: 4.527 seconds.

tnom = 27
temp = 27
method = trap
totiter = 514
traniter = 0
tranpoints = 0
accept = 0
rejected = 0
matrix size = 40
fillins = 34
solver = Normal
Matrix Compiler1: 5.01 KB object code size
Matrix Compiler2: 4.23 KB object code size  0.4/0.4/[0.3]

