Circuit: * C:\Users\dbata\OneDrive\Escritorio\Checkpoint 1\Version 3\Version 3.asc

Warning: Multiple definitions of model "2scr375p" Type: BJT
Warning: Multiple definitions of model "bc857b" Type: BJT
Warning: Multiple definitions of model "bc847c" Type: BJT
Warning: Multiple definitions of model "bc847b" Type: BJT
Direct Newton iteration for .op point succeeded.
Semiconductor Device Operating Points:
                        --- Bipolar Transistors ---
Name:       q11         q6          q5          q10         q8
Model:    2n3019      2n3019      d45h11      bc547c      bc547c
Ib:       1.62e-04    3.52e-05   -7.20e-03    2.33e-06    2.25e-06
Ic:       3.13e-02    7.20e-03   -6.08e-01    1.02e-03    1.02e-03
Vbe:      7.38e-01    6.97e-01   -5.11e-01    6.23e-01    6.22e-01
Vbc:     -6.97e-01   -3.21e+00    3.90e+00    4.18e-01    0.00e+00
Vce:      1.44e+00    3.90e+00   -4.42e+00    2.04e-01    6.22e-01
BetaDC:   1.93e+02    2.05e+02    8.44e+01    4.37e+02    4.52e+02
Gm:       1.16e+00    2.76e-01    2.64e+01    3.87e-02    3.86e-02
Rpi:      1.60e+02    7.35e+02    3.06e+00    1.15e+04    1.17e+04
Rx:       1.00e+01    1.00e+01    2.09e+00    1.00e+00    1.00e+00
Ro:       3.22e+03    1.43e+04    2.36e+01    2.95e+04    5.17e+04
Cbe:      1.10e-09    2.91e-10    1.07e-07    5.01e-11    5.00e-11
Cbc:      1.27e-11    8.80e-12    2.29e-10    1.17e-11    2.74e-12
Cjs:      0.00e+00    0.00e+00    0.00e+00    0.00e+00    0.00e+00
BetaAC:   1.86e+02    2.03e+02    8.07e+01    4.46e+02    4.50e+02
Cbx:      0.00e+00    0.00e+00    5.63e-11    7.22e-12    1.69e-12
Ft:       1.67e+08    1.46e+08    3.91e+07    8.92e+07    1.13e+08

Name:       q7          q2          q1          q9          q4
Model:    bc547c      bc547c      bc547c      bc557c      bc557c
Ib:       2.25e-06   -6.87e-12    9.34e-04   -1.05e-04   -2.87e-13
Ic:       1.04e-03    5.37e-12    1.05e-04   -3.24e-02   -8.70e-12
Vbe:      6.22e-01   -1.49e+00    6.82e-01   -7.37e-01   -1.31e-01
Vbc:     -1.20e+00   -5.35e+00    6.84e-01   -2.66e-01    0.00e+00
Vce:      1.82e+00    3.85e+00   -2.34e-03   -4.71e-01   -1.31e-01
BetaDC:   4.63e+02   -7.82e-01    1.12e-01    3.09e+02    3.03e+01
Gm:       3.95e-02    2.80e-37    3.75e-02    9.37e-01    3.32e-10
Rpi:      1.17e+04    1.00e+12    1.23e+03    2.50e+02    1.79e+11
Rx:       1.00e+00    1.00e+00    1.00e+00    1.00e+00    1.00e+00
Ro:       5.17e+04    0.00e+00    3.49e+00    7.09e+02    3.94e+11
Cbe:      5.05e-11    7.91e-12    1.91e-10    8.54e-10    1.46e-11
Cbc:      1.59e-12    1.09e-12    1.93e-11    6.64e-12    4.90e-12
Cjs:      0.00e+00    0.00e+00    0.00e+00    0.00e+00    0.00e+00
BetaAC:   4.60e+02    2.80e-25    4.59e+01    2.34e+02    5.94e+01
Cbx:      9.80e-13    6.67e-13    1.19e-11    3.92e-12    2.90e-12
Ft:       1.18e+08    1.65e-02    2.69e+07    1.73e+08    2.35e+00

Name:       q3
Model:    bc557c
Ib:       3.61e-12
Ic:      -1.40e-11
Vbe:     -1.31e-01
Vbc:      3.85e+00
Vce:     -3.98e+00
BetaDC:  -3.87e+00
Gm:       3.84e-10
Rpi:      1.79e+11
Rx:       1.00e+00
Ro:       2.91e+12
Cbe:      1.46e-11
Cbc:      1.95e-12
Cjs:      0.00e+00
BetaAC:   6.89e+01
Cbx:      1.15e-12
Ft:       3.45e+00


