Circuit: * C:\Users\Lionheart\Desktop\Checkpoint 2\LTSpice\Lazo de Corriente\Punto de Reposo.asc

Direct Newton iteration failed to find .op point.  (Use ".option noopiter" to skip.)
Starting Gmin stepping
Gmin = 10
Gmin = 1.07374
Gmin = 0.115292
Gmin = 0.0123794
Gmin = 0.00132923
Gmin = 0.000142725
Gmin = 1.5325e-005
Gmin = 1.6455e-006
Gmin = 1.76685e-007
Gmin = 1.89714e-008
Gmin = 2.03704e-009
Gmin = 2.18725e-010
Gmin = 2.34854e-011
Gmin = 2.52173e-012
Gmin = 2.70769e-013
Gmin = 0
Gmin stepping succeeded in finding the operating point.

Semiconductor Device Operating Points:
                        --- Bipolar Transistors ---
Name:       q5          q9          q8          q7          q6
Model:    tip42c      bc547c      bc547c      bc547c      bc547c
Ib:      -1.21e-02    2.13e-06    2.27e-06    2.26e-06    2.68e-05
Ic:      -9.35e-01    1.00e-03    1.03e-03    1.03e-03    1.21e-02
Vbe:     -7.97e-01    6.21e-01    6.23e-01    6.22e-01    6.90e-01
Vbc:      4.29e+00   -2.15e+00    0.00e+00   -4.13e-01   -3.60e+00
Vce:     -5.09e+00    2.77e+00    6.23e-01    1.04e+00    4.29e+00
BetaDC:   7.73e+01    4.71e+02    4.52e+02    4.56e+02    4.51e+02
Gm:       2.46e+01    3.81e-02    3.90e-02    3.91e-02    4.30e-01
Rpi:      2.19e+00    1.23e+04    1.15e+04    1.16e+04    9.75e+02
Rx:       1.00e-01    1.00e+00    1.00e+00    1.00e+00    1.00e+00
Ro:       1.11e+02    5.46e+04    5.11e+04    5.15e+04    4.64e+03
Cbe:      5.77e-07    4.97e-11    5.03e-11    5.03e-11    2.45e-10
Cbc:      2.56e-10    1.38e-12    2.74e-12    2.00e-12    1.21e-12
Cjs:      0.00e+00    0.00e+00    0.00e+00    0.00e+00    0.00e+00
BetaAC:   5.40e+01    4.68e+02    4.50e+02    4.53e+02    4.19e+02
Cbx:      0.00e+00    8.47e-13    1.69e-12    1.23e-12    7.42e-13
Ft:       6.79e+06    1.17e+08    1.14e+08    1.16e+08    2.77e+08

Name:       q2          q1          q4          q3
Model:    bc547c      bc547c      bc557c      bc557c
Ib:      -4.68e-12    2.04e-06   -2.03e-06   -2.30e-06
Ic:       3.97e-12    1.03e-03   -1.03e-03   -1.02e-03
Vbe:     -7.15e-01    6.20e-01   -6.16e-01   -6.19e-01
Vbc:     -3.94e+00   -5.90e+00    3.29e+00    0.00e+00
Vce:      3.22e+00    6.52e+00   -3.91e+00   -6.19e-01
BetaDC:  -8.47e-01    5.03e+02    5.06e+02    4.44e+02
Gm:       2.53e-24    3.90e-02    3.88e-02    3.84e-02
Rpi:      1.00e+12    1.28e+04    1.30e+04    1.15e+04
Rx:       1.00e+00    1.00e+00    1.00e+00    1.00e+00
Ro:       8.56e+26    5.70e+04    2.62e+04    2.31e+04
Cbe:      9.30e-12    5.01e-11    5.21e-11    5.20e-11
Cbc:      1.18e-12    1.06e-12    2.07e-12    4.91e-12
Cjs:      0.00e+00    0.00e+00    0.00e+00    0.00e+00
BetaAC:   2.53e-12    5.01e+02    5.04e+02    4.41e+02
Cbx:      7.24e-13    6.50e-13    1.22e-12    2.90e-12
Ft:       1.42e-02    1.20e+08    1.11e+08    1.02e+08



vo1rc: v(vo)=27.7531 at 100
vo2rc: v(vo)=1.38765 at 5
io1rc: i(rl)=11.2817 at 100
io2rc: i(rl)=0.564087 at 5
regcar: (-(vo2rc-vo1rc)/(io2rc-io1rc))=-2.46


Date: Sat Apr 12 01:12:58 2025
Total elapsed time: 0.048 seconds.

tnom = 27
temp = 27
method = trap
totiter = 421
traniter = 0
tranpoints = 0
accept = 0
rejected = 0
matrix size = 45
fillins = 36
solver = Normal
Matrix Compiler1: 5.48 KB object code size
Matrix Compiler2: 4.61 KB object code size  0.5/0.4/[0.3]

