time	V(vo)	V(vreg)	I(Rl)
0.000000000000000e+000	-1.673618e-024	0.000000e+000	-3.347235e-026
2.000000000000000e-003	-3.947551e-022	0.000000e+000	-7.895102e-024
2.000015625000000e-003	1.842123e-003	9.484925e+000	3.684247e-005
2.000015674745117e-003	1.847673e-003	9.500000e+000	3.695345e-005
2.000015774235352e-003	1.857687e-003	9.500000e+000	3.715375e-005
2.000015880851692e-003	1.867265e-003	9.500000e+000	3.734530e-005
2.000016010389870e-003	1.877372e-003	9.500000e+000	3.754743e-005
2.000016181830285e-003	1.889037e-003	9.500000e+000	3.778074e-005
2.000016365711154e-003	1.900069e-003	9.500000e+000	3.800138e-005
2.000016574842306e-003	1.911335e-003	9.500000e+000	3.822670e-005
2.000016834423911e-003	1.924237e-003	9.500000e+000	3.848474e-005
2.000017144281178e-003	1.938815e-003	9.500000e+000	3.877631e-005
2.000017491203179e-003	1.954587e-003	9.500000e+000	3.909174e-005
2.000018065006231e-003	1.980213e-003	9.500000e+000	3.960426e-005
2.000018585088423e-003	2.003271e-003	9.500000e+000	4.006542e-005
2.000019625252806e-003	2.049257e-003	9.500000e+000	4.098514e-005
2.000020771428386e-003	2.099890e-003	9.500000e+000	4.199781e-005
2.000022879835135e-003	2.192972e-003	9.500000e+000	4.385944e-005
2.000024868143024e-003	2.280691e-003	9.500000e+000	4.561383e-005
2.000027063607816e-003	2.377480e-003	9.500000e+000	4.754959e-005
2.000028565012468e-003	2.443627e-003	9.500000e+000	4.887255e-005
2.000029819137548e-003	2.498847e-003	9.500000e+000	4.997694e-005
2.000031396807720e-003	2.568274e-003	9.500000e+000	5.136547e-005
2.000033126468840e-003	2.644344e-003	9.500000e+000	5.288688e-005
2.000034882355171e-003	2.721517e-003	9.500000e+000	5.443034e-005
2.000036915319115e-003	2.810803e-003	9.500000e+000	5.621606e-005
2.000039207269153e-003	2.911380e-003	9.500000e+000	5.822759e-005
2.000042076296287e-003	3.037163e-003	9.500000e+000	6.074326e-005
2.000044913660537e-003	3.161446e-003	9.500000e+000	6.322892e-005
2.000046589205916e-003	3.234776e-003	9.500000e+000	6.469552e-005
2.000048437596909e-003	3.315607e-003	9.500000e+000	6.631214e-005
2.000050611122300e-003	3.410567e-003	9.500000e+000	6.821135e-005
2.000054958173082e-003	3.600267e-003	9.500000e+000	7.200535e-005
2.000059110263276e-003	3.781216e-003	9.500000e+000	7.562432e-005
2.000062954340193e-003	3.948472e-003	9.500000e+000	7.896943e-005
2.000067991237131e-003	4.167212e-003	9.500000e+000	8.334424e-005
2.000075384000786e-003	4.487561e-003	9.500000e+000	8.975122e-005
2.000082686627435e-003	4.803096e-003	9.500000e+000	9.606193e-005
2.000093927760339e-003	5.287190e-003	9.500000e+000	1.057438e-004
2.000103988302485e-003	5.718908e-003	9.500000e+000	1.143782e-004
2.000113599534528e-003	6.129728e-003	9.500000e+000	1.225946e-004
2.000125012935426e-003	6.615889e-003	9.500000e+000	1.323178e-004
2.000131296906889e-003	6.882742e-003	9.500000e+000	1.376548e-004
2.000136882323743e-003	7.119266e-003	9.500000e+000	1.423853e-004
2.000143762226393e-003	7.409810e-003	9.500000e+000	1.481962e-004
2.000154578364432e-003	7.865153e-003	9.500000e+000	1.573031e-004
2.000165103091082e-003	8.306623e-003	9.500000e+000	1.661325e-004
2.000175975167643e-003	8.760801e-003	9.500000e+000	1.752160e-004
2.000187857212788e-003	9.255051e-003	9.500000e+000	1.851010e-004
2.000200643402064e-003	9.784503e-003	9.500000e+000	1.956901e-004
2.000213948397916e-003	1.033281e-002	9.500000e+000	2.066561e-004
2.000227556796776e-003	1.089079e-002	9.500000e+000	2.178158e-004
2.000242209622434e-003	1.148832e-002	9.500000e+000	2.297663e-004
2.000259553500354e-003	1.219098e-002	9.500000e+000	2.438196e-004
2.000284354243232e-003	1.318648e-002	9.500000e+000	2.637295e-004
2.000327617162671e-003	1.489926e-002	9.500000e+000	2.979853e-004
2.000391182214141e-003	1.737143e-002	9.500000e+000	3.474286e-004
2.000451601481830e-003	1.967193e-002	9.500000e+000	3.934385e-004
2.000512838820289e-003	2.194912e-002	9.500000e+000	4.389824e-004
2.000581709514805e-003	2.444332e-002	9.500000e+000	4.888664e-004
2.000676206823768e-003	2.775746e-002	9.500000e+000	5.551493e-004
2.000798162401867e-003	3.185792e-002	9.500000e+000	6.371583e-004
2.000969409039585e-003	3.734799e-002	9.500000e+000	7.469599e-004
2.001092815030680e-003	4.113616e-002	9.500000e+000	8.227232e-004
2.001137543725965e-003	4.245800e-002	9.500000e+000	8.491600e-004
2.001199636236127e-003	4.424518e-002	9.500000e+000	8.849035e-004
2.001248686740228e-003	4.562944e-002	9.500000e+000	9.125889e-004
2.001302710170382e-003	4.712274e-002	9.500000e+000	9.424547e-004
2.001358304006232e-003	4.862114e-002	9.500000e+000	9.724229e-004
2.001469491677931e-003	5.151860e-002	9.500000e+000	1.030372e-003
2.001609426291878e-003	5.500601e-002	9.500000e+000	1.100120e-003
2.001780255402561e-003	5.902574e-002	9.500000e+000	1.180515e-003
2.001969287316943e-003	6.316184e-002	9.500000e+000	1.263237e-003
2.002244204201477e-003	6.860358e-002	9.500000e+000	1.372072e-003
2.002684158310322e-003	7.607020e-002	9.500000e+000	1.521404e-003
2.003462285632897e-003	8.681989e-002	9.500000e+000	1.736398e-003
2.004149202655538e-003	9.416530e-002	9.500000e+000	1.883306e-003
2.004863308032762e-003	9.984205e-002	9.500000e+000	1.996841e-003
2.005522337849307e-003	1.036721e-001	9.500000e+000	2.073441e-003
2.006432816888230e-003	1.073314e-001	9.500000e+000	2.146628e-003
2.007490534249753e-003	1.100084e-001	9.500000e+000	2.200169e-003
2.008834957048132e-003	1.117678e-001	9.500000e+000	2.235356e-003
2.010314665118600e-003	1.123991e-001	9.500000e+000	2.247983e-003
2.012161406354189e-003	1.121180e-001	9.500000e+000	2.242359e-003
2.014151816541571e-003	1.111729e-001	9.500000e+000	2.223458e-003
2.016690324144629e-003	1.096161e-001	9.500000e+000	2.192322e-003
2.018215623634014e-003	1.087567e-001	9.500000e+000	2.175133e-003
2.019431496555790e-003	1.085944e-001	9.500000e+000	2.171889e-003
2.020756736753227e-003	1.100074e-001	9.500000e+000	2.200148e-003
2.022162870588863e-003	1.139821e-001	9.500000e+000	2.279641e-003
2.022816575608117e-003	1.172351e-001	9.500000e+000	2.344703e-003
2.023609683253254e-003	1.228269e-001	9.500000e+000	2.456539e-003
2.024492800507916e-003	1.305176e-001	9.500000e+000	2.610352e-003
2.025416042338824e-003	1.399495e-001	9.500000e+000	2.798990e-003
2.026278964441063e-003	1.499369e-001	9.500000e+000	2.998738e-003
2.027538197391814e-003	1.659817e-001	9.500000e+000	3.319634e-003
2.028849245398348e-003	1.839168e-001	9.500000e+000	3.678335e-003
2.030093895357840e-003	2.019286e-001	9.500000e+000	4.038572e-003
2.031994807423147e-003	2.304945e-001	9.500000e+000	4.609890e-003
2.034018497320717e-003	2.615359e-001	9.500000e+000	5.230718e-003
2.037304609466465e-003	3.121437e-001	9.500000e+000	6.242874e-003
2.040905722819651e-003	3.665211e-001	9.500000e+000	7.330423e-003
2.046896310192363e-003	4.530938e-001	9.500000e+000	9.061877e-003
2.054592677880421e-003	5.570488e-001	9.500000e+000	1.114098e-002
2.064592677880421e-003	6.813238e-001	9.500000e+000	1.362648e-002
2.074592677880421e-003	7.953154e-001	9.500000e+000	1.590631e-002
2.084592677880421e-003	9.003879e-001	9.500000e+000	1.800776e-002
2.094592677880421e-003	9.983714e-001	9.500000e+000	1.996743e-002
2.104592677880421e-003	1.090726e+000	9.500000e+000	2.181451e-002
2.114592677880421e-003	1.178612e+000	9.500000e+000	2.357224e-002
2.124592677880421e-003	1.262953e+000	9.500000e+000	2.525907e-002
2.134592677880421e-003	1.344484e+000	9.500000e+000	2.688968e-002
2.144592677880421e-003	1.423786e+000	9.500000e+000	2.847572e-002
2.164592677880421e-003	1.577463e+000	9.500000e+000	3.154926e-002
2.184592677880422e-003	1.726657e+000	9.500000e+000	3.453314e-002
2.214592677880422e-003	1.945541e+000	9.500000e+000	3.891083e-002
2.223164106451850e-003	2.007335e+000	9.500000e+000	4.014669e-002
2.231735535023279e-003	2.069001e+000	9.500000e+000	4.138003e-002
2.240306963594707e-003	2.130542e+000	9.500000e+000	4.261083e-002
2.248878392166136e-003	2.191955e+000	9.500000e+000	4.383910e-002
2.257449820737565e-003	2.253242e+000	9.500000e+000	4.506485e-002
2.266021249308993e-003	2.314403e+000	9.500000e+000	4.628806e-002
2.274592677880422e-003	2.375437e+000	9.500000e+000	4.750874e-002
2.284592677880422e-003	2.446638e+000	9.500000e+000	4.893276e-002
2.294592677880422e-003	2.517772e+000	9.500000e+000	5.035545e-002
2.304592677880422e-003	2.588839e+000	9.500000e+000	5.177679e-002
2.314592677880422e-003	2.659796e+000	9.500000e+000	5.319592e-002
2.324592677880422e-003	2.730454e+000	9.500000e+000	5.460908e-002
2.334592677880422e-003	2.800182e+000	9.500000e+000	5.600364e-002
2.344592677880422e-003	2.867379e+000	9.500000e+000	5.734758e-002
2.354592677880422e-003	2.929399e+000	9.500000e+000	5.858797e-002
2.364592677880422e-003	2.983959e+000	9.500000e+000	5.967918e-002
2.374592677880422e-003	3.031094e+000	9.500000e+000	6.062188e-002
2.384592677880422e-003	3.073039e+000	9.500000e+000	6.146078e-002
2.394592677880422e-003	3.112177e+000	9.500000e+000	6.224355e-002
2.404592677880422e-003	3.149789e+000	9.500000e+000	6.299578e-002
2.434592677880422e-003	3.256849e+000	9.500000e+000	6.513698e-002
2.463164106451851e-003	3.351274e+000	9.500000e+000	6.702547e-002
2.491735535023279e-003	3.441050e+000	9.500000e+000	6.882101e-002
2.520306963594708e-003	3.526179e+000	9.500000e+000	7.052358e-002
2.548878392166137e-003	3.606659e+000	9.500000e+000	7.213319e-002
2.577449820737566e-003	3.682492e+000	9.500000e+000	7.364983e-002
2.606021249308994e-003	3.753676e+000	9.500000e+000	7.507352e-002
2.634592677880423e-003	3.820212e+000	9.500000e+000	7.640424e-002
2.678878392166137e-003	3.915916e+000	9.500000e+000	7.831832e-002
2.723164106451851e-003	4.005109e+000	9.500000e+000	8.010218e-002
2.767449820737566e-003	4.087791e+000	9.500000e+000	8.175581e-002
2.811735535023280e-003	4.163961e+000	9.500000e+000	8.327923e-002
2.856021249308995e-003	4.233621e+000	9.500000e+000	8.467242e-002
2.900306963594709e-003	4.296769e+000	9.500000e+000	8.593539e-002
2.944592677880424e-003	4.353407e+000	9.500000e+000	8.706813e-002
2.991735535023281e-003	4.408984e+000	9.500000e+000	8.817968e-002
3.038878392166138e-003	4.460605e+000	9.500000e+000	8.921210e-002
3.086021249308995e-003	4.508271e+000	9.500000e+000	9.016541e-002
3.133164106451853e-003	4.551980e+000	9.500000e+000	9.103959e-002
3.180306963594710e-003	4.591733e+000	9.500000e+000	9.183465e-002
3.227449820737567e-003	4.627530e+000	9.500000e+000	9.255059e-002
3.274592677880424e-003	4.659371e+000	9.500000e+000	9.318741e-002
3.321735535023282e-003	4.688733e+000	9.500000e+000	9.377466e-002
3.368878392166139e-003	4.716007e+000	9.500000e+000	9.432013e-002
3.416021249308996e-003	4.741191e+000	9.500000e+000	9.482382e-002
3.463164106451853e-003	4.764286e+000	9.500000e+000	9.528572e-002
3.510306963594711e-003	4.785292e+000	9.500000e+000	9.570584e-002
3.557449820737568e-003	4.804209e+000	9.500000e+000	9.608419e-002
3.604592677880425e-003	4.821037e+000	9.500000e+000	9.642075e-002
3.651735535023282e-003	4.836555e+000	9.500000e+000	9.673110e-002
3.698878392166140e-003	4.850968e+000	9.500000e+000	9.701936e-002
3.746021249308997e-003	4.864277e+000	9.500000e+000	9.728555e-002
3.793164106451854e-003	4.876482e+000	9.500000e+000	9.752965e-002
3.840306963594711e-003	4.887584e+000	9.500000e+000	9.775168e-002
3.887449820737568e-003	4.897581e+000	9.500000e+000	9.795162e-002
3.934592677880425e-003	4.906475e+000	9.500000e+000	9.812949e-002
3.981735535023280e-003	4.914675e+000	9.500000e+000	9.829350e-002
4.028878392166136e-003	4.922292e+000	9.500000e+000	9.844584e-002
4.076021249308991e-003	4.929326e+000	9.500000e+000	9.858652e-002
4.123164106451846e-003	4.935777e+000	9.500000e+000	9.871553e-002
4.170306963594702e-003	4.941643e+000	9.500000e+000	9.883287e-002
4.217449820737557e-003	4.946927e+000	9.500000e+000	9.893853e-002
4.264592677880412e-003	4.951627e+000	9.500000e+000	9.903254e-002
4.311735535023267e-003	4.955960e+000	9.500000e+000	9.911921e-002
4.358878392166123e-003	4.959986e+000	9.500000e+000	9.919972e-002
4.406021249308978e-003	4.963703e+000	9.500000e+000	9.927406e-002
4.453164106451833e-003	4.967112e+000	9.500000e+000	9.934224e-002
4.500306963594688e-003	4.970212e+000	9.500000e+000	9.940425e-002
4.547449820737543e-003	4.973005e+000	9.500000e+000	9.946009e-002
4.594592677880398e-003	4.975489e+000	9.500000e+000	9.950977e-002
4.641735535023253e-003	4.977779e+000	9.500000e+000	9.955557e-002
4.688878392166109e-003	4.979906e+000	9.500000e+000	9.959812e-002
4.736021249308964e-003	4.981870e+000	9.500000e+000	9.963741e-002
4.783164106451819e-003	4.983672e+000	9.500000e+000	9.967344e-002
4.830306963594675e-003	4.985310e+000	9.500000e+000	9.970621e-002
4.877449820737530e-003	4.986786e+000	9.500000e+000	9.973572e-002
4.924592677880385e-003	4.988099e+000	9.500000e+000	9.976197e-002
4.971735535023240e-003	4.989309e+000	9.500000e+000	9.978618e-002
5.018878392166096e-003	4.990433e+000	9.500000e+000	9.980866e-002
5.066021249308951e-003	4.991471e+000	9.500000e+000	9.982942e-002
5.113164106451806e-003	4.992423e+000	9.500000e+000	9.984846e-002
5.160306963594661e-003	4.993289e+000	9.500000e+000	9.986578e-002
5.207449820737516e-003	4.994069e+000	9.500000e+000	9.988137e-002
5.254592677880371e-003	4.994762e+000	9.500000e+000	9.989525e-002
5.301735535023226e-003	4.995402e+000	9.500000e+000	9.990804e-002
5.348878392166082e-003	4.995996e+000	9.500000e+000	9.991992e-002
5.396021249308937e-003	4.996545e+000	9.500000e+000	9.993089e-002
5.443164106451792e-003	4.997048e+000	9.500000e+000	9.994096e-002
5.490306963594648e-003	4.997505e+000	9.500000e+000	9.995011e-002
5.537449820737503e-003	4.997918e+000	9.500000e+000	9.995835e-002
5.584592677880358e-003	4.998284e+000	9.500000e+000	9.996568e-002
5.631735535023213e-003	4.998622e+000	9.500000e+000	9.997244e-002
5.678878392166069e-003	4.998936e+000	9.500000e+000	9.997872e-002
5.726021249308924e-003	4.999226e+000	9.500000e+000	9.998452e-002
5.773164106451779e-003	4.999492e+000	9.500000e+000	9.998984e-002
5.820306963594635e-003	4.999734e+000	9.500000e+000	9.999467e-002
5.867449820737490e-003	4.999951e+000	9.500000e+000	9.999903e-002
5.914592677880345e-003	5.000145e+000	9.500000e+000	1.000029e-001
5.963164106451771e-003	5.000329e+000	9.500000e+000	1.000066e-001
6.011735535023197e-003	5.000499e+000	9.500000e+000	1.000100e-001
6.060306963594624e-003	5.000656e+000	9.500000e+000	1.000131e-001
6.108878392166051e-003	5.000800e+000	9.500000e+000	1.000160e-001
6.157449820737478e-003	5.000930e+000	9.500000e+000	1.000186e-001
6.206021249308904e-003	5.001046e+000	9.500000e+000	1.000209e-001
6.254592677880331e-003	5.001150e+000	9.500000e+000	1.000230e-001
6.303164106451757e-003	5.001245e+000	9.500000e+000	1.000249e-001
6.351735535023184e-003	5.001333e+000	9.500000e+000	1.000267e-001
6.400306963594610e-003	5.001414e+000	9.500000e+000	1.000283e-001
6.448878392166037e-003	5.001489e+000	9.500000e+000	1.000298e-001
6.497449820737464e-003	5.001556e+000	9.500000e+000	1.000311e-001
6.546021249308890e-003	5.001617e+000	9.500000e+000	1.000323e-001
6.594592677880317e-003	5.001670e+000	9.500000e+000	1.000334e-001
6.646021249308886e-003	5.001722e+000	9.500000e+000	1.000344e-001
6.697449820737456e-003	5.001770e+000	9.500000e+000	1.000354e-001
6.748878392166025e-003	5.001814e+000	9.500000e+000	1.000363e-001
6.800306963594594e-003	5.001854e+000	9.500000e+000	1.000371e-001
6.851735535023163e-003	5.001891e+000	9.500000e+000	1.000378e-001
6.903164106451733e-003	5.001923e+000	9.500000e+000	1.000385e-001
6.954592677880302e-003	5.001951e+000	9.500000e+000	1.000390e-001
7.008878392166015e-003	5.001978e+000	9.500000e+000	1.000396e-001
7.063164106451726e-003	5.002003e+000	9.500000e+000	1.000401e-001
7.117449820737439e-003	5.002026e+000	9.500000e+000	1.000405e-001
7.171735535023150e-003	5.002047e+000	9.500000e+000	1.000409e-001
7.226021249308863e-003	5.002066e+000	9.500000e+000	1.000413e-001
7.280306963594575e-003	5.002082e+000	9.500000e+000	1.000416e-001
7.334592677880287e-003	5.002097e+000	9.500000e+000	1.000419e-001
7.397449820737427e-003	5.002111e+000	9.500000e+000	1.000422e-001
7.460306963594567e-003	5.002125e+000	9.500000e+000	1.000425e-001
7.523164106451707e-003	5.002137e+000	9.500000e+000	1.000428e-001
7.586021249308848e-003	5.002148e+000	9.500000e+000	1.000430e-001
7.648878392165989e-003	5.002158e+000	9.500000e+000	1.000432e-001
7.711735535023128e-003	5.002166e+000	9.500000e+000	1.000433e-001
7.774592677880269e-003	5.002173e+000	9.500000e+000	1.000435e-001
7.853164106451694e-003	5.002181e+000	9.500000e+000	1.000436e-001
7.931735535023120e-003	5.002188e+000	9.500000e+000	1.000438e-001
8.010306963594545e-003	5.002194e+000	9.500000e+000	1.000439e-001
8.088878392165971e-003	5.002199e+000	9.500000e+000	1.000440e-001
8.167449820737397e-003	5.002204e+000	9.500000e+000	1.000441e-001
8.246021249308821e-003	5.002208e+000	9.500000e+000	1.000442e-001
8.324592677880247e-003	5.002211e+000	9.500000e+000	1.000442e-001
8.433164106451672e-003	5.002214e+000	9.500000e+000	1.000443e-001
8.541735535023095e-003	5.002217e+000	9.500000e+000	1.000443e-001
8.650306963594520e-003	5.002220e+000	9.500000e+000	1.000444e-001
8.758878392165943e-003	5.002222e+000	9.500000e+000	1.000444e-001
8.867449820737368e-003	5.002224e+000	9.500000e+000	1.000445e-001
8.976021249308793e-003	5.002225e+000	9.500000e+000	1.000445e-001
9.084592677880216e-003	5.002226e+000	9.500000e+000	1.000445e-001
9.094592677880216e-003	5.002226e+000	9.500000e+000	1.000445e-001
9.221735535023068e-003	5.002227e+000	9.500000e+000	1.000445e-001
9.348878392165919e-003	5.002228e+000	9.500000e+000	1.000446e-001
9.476021249308773e-003	5.002228e+000	9.500000e+000	1.000446e-001
9.603164106451624e-003	5.002229e+000	9.500000e+000	1.000446e-001
9.730306963594476e-003	5.002229e+000	9.500000e+000	1.000446e-001
9.857449820737328e-003	5.002230e+000	9.500000e+000	1.000446e-001
9.984592677880180e-003	5.002230e+000	9.500000e+000	1.000446e-001
9.994592677880179e-003	5.002230e+000	9.500000e+000	1.000446e-001
1.000000000000000e-002	5.002230e+000	9.500000e+000	1.000446e-001
