time	V(vo)	V(vregp)	I(Rl)
0.000000000000000e+000	1.800550e-025	0.000000e+000	3.601099e-027
1.000000000000000e-003	2.350500e-025	0.000000e+000	4.700999e-027
1.000002025000007e-003	1.068680e-003	9.499710e+000	2.137360e-005
1.000002025123603e-003	1.068745e-003	9.500000e+000	2.137490e-005
1.000002025370795e-003	1.068875e-003	9.500000e+000	2.137751e-005
1.000002025865180e-003	1.069135e-003	9.500000e+000	2.138271e-005
1.000002026853950e-003	1.069654e-003	9.500000e+000	2.139308e-005
1.000002028831489e-003	1.070685e-003	9.500000e+000	2.141370e-005
1.000002032786567e-003	1.072730e-003	9.500000e+000	2.145461e-005
1.000002037900065e-003	1.075347e-003	9.500000e+000	2.150694e-005
1.000002043129284e-003	1.077991e-003	9.500000e+000	2.155982e-005
1.000002049432708e-003	1.081133e-003	9.500000e+000	2.162266e-005
1.000002058424440e-003	1.085549e-003	9.500000e+000	2.171098e-005
1.000002066669000e-003	1.089530e-003	9.500000e+000	2.179061e-005
1.000002076699146e-003	1.094283e-003	9.500000e+000	2.188565e-005
1.000002087672187e-003	1.099374e-003	9.500000e+000	2.198749e-005
1.000002101073275e-003	1.105443e-003	9.500000e+000	2.210885e-005
1.000002116528066e-003	1.112239e-003	9.500000e+000	2.224479e-005
1.000002136658599e-003	1.120777e-003	9.500000e+000	2.241554e-005
1.000002161937989e-003	1.131003e-003	9.500000e+000	2.262007e-005
1.000002198428829e-003	1.144827e-003	9.500000e+000	2.289654e-005
1.000002252172082e-003	1.163209e-003	9.500000e+000	2.326417e-005
1.000002352597949e-003	1.192019e-003	9.500000e+000	2.384037e-005
1.000002553449682e-003	1.236947e-003	9.500000e+000	2.473895e-005
1.000002759212407e-003	1.270803e-003	9.500000e+000	2.541607e-005
1.000002963598165e-003	1.294792e-003	9.500000e+000	2.589585e-005
1.000003179500309e-003	1.313772e-003	9.500000e+000	2.627544e-005
1.000003407463472e-003	1.329724e-003	9.500000e+000	2.659448e-005
1.000003644339521e-003	1.343726e-003	9.500000e+000	2.687452e-005
1.000003894364651e-003	1.356890e-003	9.500000e+000	2.713781e-005
1.000004191124311e-003	1.371407e-003	9.500000e+000	2.742814e-005
1.000004525318375e-003	1.387050e-003	9.500000e+000	2.774100e-005
1.000004971948741e-003	1.407443e-003	9.500000e+000	2.814886e-005
1.000005503901191e-003	1.431431e-003	9.500000e+000	2.862862e-005
1.000006334841918e-003	1.468671e-003	9.500000e+000	2.937342e-005
1.000007163038752e-003	1.505673e-003	9.500000e+000	3.011347e-005
1.000007866298140e-003	1.537027e-003	9.500000e+000	3.074055e-005
1.000008576932316e-003	1.568660e-003	9.500000e+000	3.137320e-005
1.000009362483163e-003	1.603579e-003	9.500000e+000	3.207159e-005
1.000010371714125e-003	1.648386e-003	9.500000e+000	3.296771e-005
1.000011434602371e-003	1.695518e-003	9.500000e+000	3.391036e-005
1.000012671763129e-003	1.750316e-003	9.500000e+000	3.500633e-005
1.000013921855309e-003	1.805630e-003	9.500000e+000	3.611260e-005
1.000015313751295e-003	1.867157e-003	9.500000e+000	3.734315e-005
1.000016741228095e-003	1.930197e-003	9.500000e+000	3.860395e-005
1.000018818560509e-003	2.021850e-003	9.500000e+000	4.043700e-005
1.000021475379704e-003	2.138981e-003	9.500000e+000	4.277962e-005
1.000023544256893e-003	2.230137e-003	9.500000e+000	4.460274e-005
1.000026041414504e-003	2.340114e-003	9.500000e+000	4.680228e-005
1.000028545318880e-003	2.450339e-003	9.500000e+000	4.900678e-005
1.000031705954040e-003	2.589382e-003	9.500000e+000	5.178763e-005
1.000035421139147e-003	2.752666e-003	9.500000e+000	5.505332e-005
1.000039533382535e-003	2.933172e-003	9.500000e+000	5.866344e-005
1.000044221989766e-003	3.138641e-003	9.500000e+000	6.277282e-005
1.000050308342487e-003	3.404796e-003	9.500000e+000	6.809592e-005
1.000058845966385e-003	3.777015e-003	9.500000e+000	7.554031e-005
1.000072379204754e-003	4.364200e-003	9.500000e+000	8.728401e-005
1.000096309089712e-003	5.393534e-003	9.500000e+000	1.078707e-004
1.000144168859629e-003	7.426629e-003	9.500000e+000	1.485326e-004
1.000194374588171e-003	9.522703e-003	9.500000e+000	1.904541e-004
1.000260531550901e-003	1.222506e-002	9.500000e+000	2.445013e-004
1.000332783526464e-003	1.509587e-002	9.500000e+000	3.019174e-004
1.000444646172852e-003	1.938086e-002	9.500000e+000	3.876172e-004
1.000592227253583e-003	2.473139e-002	9.500000e+000	4.946278e-004
1.000865192206420e-003	3.371960e-002	9.500000e+000	6.743920e-004
1.001411122112093e-003	4.919468e-002	9.500000e+000	9.838935e-004
1.002131032632744e-003	6.582157e-002	9.500000e+000	1.316431e-003
1.002851649041677e-003	7.872888e-002	9.500000e+000	1.574578e-003
1.003566405079100e-003	8.846284e-002	9.500000e+000	1.769257e-003
1.004207349055340e-003	9.524261e-002	9.500000e+000	1.904852e-003
1.004603263181684e-003	9.861404e-002	9.500000e+000	1.972281e-003
1.004904101585602e-003	1.007499e-001	9.500000e+000	2.014999e-003
1.005264347221723e-003	1.029270e-001	9.500000e+000	2.058541e-003
1.005730250624979e-003	1.052388e-001	9.500000e+000	2.104775e-003
1.006485066404163e-003	1.080772e-001	9.500000e+000	2.161545e-003
1.007485066404163e-003	1.106679e-001	9.500000e+000	2.213357e-003
1.008485066404163e-003	1.122418e-001	9.500000e+000	2.244835e-003
1.009485066404162e-003	1.130513e-001	9.500000e+000	2.261025e-003
1.010485066404162e-003	1.133483e-001	9.500000e+000	2.266966e-003
1.011485066404162e-003	1.133038e-001	9.500000e+000	2.266076e-003
1.012485066404162e-003	1.130324e-001	9.500000e+000	2.260647e-003
1.013485066404162e-003	1.126180e-001	9.500000e+000	2.252360e-003
1.014107199391080e-003	1.123076e-001	9.500000e+000	2.246151e-003
1.014431806060755e-003	1.121293e-001	9.500000e+000	2.242587e-003
1.014782706554751e-003	1.119264e-001	9.500000e+000	2.238528e-003
1.015219130038070e-003	1.116646e-001	9.500000e+000	2.233292e-003
1.015656704776181e-003	1.113923e-001	9.500000e+000	2.227845e-003
1.016366403670445e-003	1.109336e-001	9.500000e+000	2.218673e-003
1.017366403670445e-003	1.102651e-001	9.500000e+000	2.205303e-003
1.018366403670444e-003	1.095774e-001	9.500000e+000	2.191548e-003
1.019366403670444e-003	1.088761e-001	9.500000e+000	2.177523e-003
1.020366403670444e-003	1.081684e-001	9.500000e+000	2.163369e-003
1.021366403670444e-003	1.074623e-001	9.500000e+000	2.149247e-003
1.022366403670444e-003	1.067706e-001	9.500000e+000	2.135411e-003
1.023366403670444e-003	1.061115e-001	9.500000e+000	2.122229e-003
1.024061880335155e-003	1.056887e-001	9.500000e+000	2.113775e-003
1.024397804236500e-003	1.055093e-001	9.500000e+000	2.110185e-003
1.024741564411062e-003	1.053607e-001	9.500000e+000	2.107215e-003
1.025203765943291e-003	1.052257e-001	9.500000e+000	2.104514e-003
1.025631708436685e-003	1.052157e-001	9.500000e+000	2.104314e-003
1.026326022255501e-003	1.055799e-001	9.500000e+000	2.111598e-003
1.027326022255501e-003	1.070266e-001	9.500000e+000	2.140532e-003
1.028326022255501e-003	1.098334e-001	9.500000e+000	2.196667e-003
1.029326022255501e-003	1.143169e-001	9.500000e+000	2.286338e-003
1.030326022255501e-003	1.205527e-001	9.500000e+000	2.411054e-003
1.031326022255501e-003	1.284598e-001	9.500000e+000	2.569195e-003
1.032326022255501e-003	1.378592e-001	9.500000e+000	2.757183e-003
1.033326022255501e-003	1.484782e-001	9.500000e+000	2.969564e-003
1.034046337838979e-003	1.567707e-001	9.500000e+000	3.135414e-003
1.034386159680134e-003	1.608970e-001	9.500000e+000	3.217940e-003
1.034727502207291e-003	1.651929e-001	9.500000e+000	3.303858e-003
1.035198508566171e-003	1.712817e-001	9.500000e+000	3.425633e-003
1.035623154345111e-003	1.769340e-001	9.500000e+000	3.538679e-003
1.036312197546976e-003	1.864249e-001	9.500000e+000	3.728497e-003
1.037312197546975e-003	2.006888e-001	9.500000e+000	4.013775e-003
1.038312197546975e-003	2.154522e-001	9.500000e+000	4.309043e-003
1.039312197546975e-003	2.306669e-001	9.500000e+000	4.613337e-003
1.040312197546975e-003	2.462423e-001	9.500000e+000	4.924845e-003
1.041312197546975e-003	2.620996e-001	9.500000e+000	5.241992e-003
1.042312197546975e-003	2.781710e-001	9.500000e+000	5.563420e-003
1.043312197546975e-003	2.943919e-001	9.500000e+000	5.887838e-003
1.044041001472672e-003	3.062809e-001	9.500000e+000	6.125619e-003
1.044722679833111e-003	3.174470e-001	9.500000e+000	6.348940e-003
1.045538018937832e-003	3.308310e-001	9.500000e+000	6.616620e-003
1.046174458892588e-003	3.412843e-001	9.500000e+000	6.825686e-003
1.047174458892587e-003	3.576985e-001	9.500000e+000	7.153970e-003
1.048174458892587e-003	3.740822e-001	9.500000e+000	7.481643e-003
1.049174458892587e-003	3.904127e-001	9.500000e+000	7.808255e-003
1.050174458892587e-003	4.066707e-001	9.500000e+000	8.133413e-003
1.052174458892587e-003	4.389056e-001	9.500000e+000	8.778112e-003
1.053516832272441e-003	4.603225e-001	9.500000e+000	9.206449e-003
1.054859205652296e-003	4.814819e-001	9.500000e+000	9.629637e-003
1.056201579032150e-003	5.023839e-001	9.500000e+000	1.004768e-002
1.057543952412004e-003	5.230285e-001	9.500000e+000	1.046057e-002
1.058886325791858e-003	5.434156e-001	9.500000e+000	1.086831e-002
1.060228699171712e-003	5.635454e-001	9.500000e+000	1.127091e-002
1.061571072551567e-003	5.834177e-001	9.500000e+000	1.166835e-002
1.064394626468338e-003	6.241996e-001	9.500000e+000	1.248399e-002
1.067218180385110e-003	6.639014e-001	9.500000e+000	1.327803e-002
1.070041734301882e-003	7.025231e-001	9.500000e+000	1.405046e-002
1.072865288218653e-003	7.400647e-001	9.500000e+000	1.480129e-002
1.075688842135425e-003	7.765262e-001	9.500000e+000	1.553052e-002
1.078512396052197e-003	8.119077e-001	9.500000e+000	1.623815e-002
1.081335949968968e-003	8.462090e-001	9.500000e+000	1.692418e-002
1.087664821658467e-003	9.191444e-001	9.500000e+000	1.838289e-002
1.093993693347966e-003	9.892621e-001	9.500000e+000	1.978524e-002
1.100322565037465e-003	1.056562e+000	9.500000e+000	2.113124e-002
1.106651436726964e-003	1.121044e+000	9.500000e+000	2.242089e-002
1.112980308416464e-003	1.182709e+000	9.500000e+000	2.365418e-002
1.119309180105963e-003	1.241556e+000	9.500000e+000	2.483112e-002
1.125638051795462e-003	1.297585e+000	9.500000e+000	2.595170e-002
1.134207663022247e-003	1.371270e+000	9.500000e+000	2.742540e-002
1.142777274249033e-003	1.443360e+000	9.500000e+000	2.886721e-002
1.151346885475819e-003	1.513857e+000	9.500000e+000	3.027714e-002
1.159916496702605e-003	1.582759e+000	9.500000e+000	3.165518e-002
1.168486107929390e-003	1.650067e+000	9.500000e+000	3.300134e-002
1.177055719156176e-003	1.715781e+000	9.500000e+000	3.431562e-002
1.185625330382962e-003	1.779900e+000	9.500000e+000	3.559801e-002
1.196332278646817e-003	1.859481e+000	9.500000e+000	3.718962e-002
1.207039226910672e-003	1.938527e+000	9.500000e+000	3.877055e-002
1.217746175174527e-003	2.017040e+000	9.500000e+000	4.034080e-002
1.228453123438382e-003	2.095018e+000	9.500000e+000	4.190037e-002
1.239160071702237e-003	2.172463e+000	9.500000e+000	4.344926e-002
1.249867019966092e-003	2.249373e+000	9.500000e+000	4.498746e-002
1.260573968229948e-003	2.325749e+000	9.500000e+000	4.651499e-002
1.263111441775776e-003	2.343886e+000	9.500000e+000	4.687772e-002
1.265648915321604e-003	2.362013e+000	9.500000e+000	4.724026e-002
1.268186388867433e-003	2.380130e+000	9.500000e+000	4.760260e-002
1.270723862413261e-003	2.398237e+000	9.500000e+000	4.796475e-002
1.273261335959090e-003	2.416335e+000	9.500000e+000	4.832670e-002
1.275798809504918e-003	2.434423e+000	9.500000e+000	4.868847e-002
1.278336283050746e-003	2.452502e+000	9.500000e+000	4.905003e-002
1.281336283050746e-003	2.473866e+000	9.500000e+000	4.947732e-002
1.282619059006618e-003	2.482998e+000	9.500000e+000	4.965995e-002
1.283901834962490e-003	2.492128e+000	9.500000e+000	4.984255e-002
1.285184610918362e-003	2.501255e+000	9.500000e+000	5.002510e-002
1.286467386874234e-003	2.510381e+000	9.500000e+000	5.020761e-002
1.287750162830106e-003	2.519504e+000	9.500000e+000	5.039007e-002
1.289032938785978e-003	2.528625e+000	9.500000e+000	5.057249e-002
1.290315714741850e-003	2.537744e+000	9.500000e+000	5.075487e-002
1.292315714741850e-003	2.551956e+000	9.500000e+000	5.103912e-002
1.294042359878024e-003	2.564221e+000	9.500000e+000	5.128442e-002
1.294918944527934e-003	2.570446e+000	9.500000e+000	5.140892e-002
1.295795529177845e-003	2.576670e+000	9.500000e+000	5.153339e-002
1.296672113827756e-003	2.582891e+000	9.500000e+000	5.165782e-002
1.297548698477667e-003	2.589111e+000	9.500000e+000	5.178222e-002
1.298425283127577e-003	2.595330e+000	9.500000e+000	5.190659e-002
1.299301867777488e-003	2.601546e+000	9.500000e+000	5.203092e-002
1.300178452427399e-003	2.607761e+000	9.500000e+000	5.215523e-002
1.301178452427399e-003	2.614849e+000	9.500000e+000	5.229697e-002
1.302178452427399e-003	2.621933e+000	9.500000e+000	5.243865e-002
1.303178452427398e-003	2.629014e+000	9.500000e+000	5.258027e-002
1.304343228632183e-003	2.637257e+000	9.500000e+000	5.274514e-002
1.305298297437712e-003	2.644011e+000	9.500000e+000	5.288023e-002
1.306573968233047e-003	2.653026e+000	9.500000e+000	5.306051e-002
1.307573968233047e-003	2.660086e+000	9.500000e+000	5.320172e-002
1.308573968233047e-003	2.667140e+000	9.500000e+000	5.334281e-002
1.309573968233047e-003	2.674188e+000	9.500000e+000	5.348376e-002
1.310573968233047e-003	2.681228e+000	9.500000e+000	5.362456e-002
1.311573968233047e-003	2.688259e+000	9.500000e+000	5.376518e-002
1.312573968233047e-003	2.695280e+000	9.500000e+000	5.390560e-002
1.313573968233047e-003	2.702292e+000	9.500000e+000	5.404583e-002
1.314457101162375e-003	2.708474e+000	9.500000e+000	5.416948e-002
1.315230572989647e-003	2.713878e+000	9.500000e+000	5.427757e-002
1.316396459448771e-003	2.722005e+000	9.500000e+000	5.444010e-002
1.317396459448771e-003	2.728956e+000	9.500000e+000	5.457913e-002
1.318396459448771e-003	2.735890e+000	9.500000e+000	5.471779e-002
1.319396459448771e-003	2.742801e+000	9.500000e+000	5.485601e-002
1.320396459448771e-003	2.749687e+000	9.500000e+000	5.499373e-002
1.321396459448771e-003	2.756545e+000	9.500000e+000	5.513090e-002
1.322396459448771e-003	2.763372e+000	9.500000e+000	5.526744e-002
1.323396459448771e-003	2.770168e+000	9.500000e+000	5.540336e-002
1.324406445666776e-003	2.776995e+000	9.500000e+000	5.553991e-002
1.325638058481617e-003	2.785253e+000	9.500000e+000	5.570506e-002
1.326336283051103e-003	2.789899e+000	9.500000e+000	5.579798e-002
1.327336283051103e-003	2.796511e+000	9.500000e+000	5.593022e-002
1.328336283051103e-003	2.803071e+000	9.500000e+000	5.606141e-002
1.329336283051103e-003	2.809569e+000	9.500000e+000	5.619138e-002
1.331336283051102e-003	2.822363e+000	9.500000e+000	5.644725e-002
1.334050293392535e-003	2.839245e+000	9.500000e+000	5.678490e-002
1.335231067871026e-003	2.846386e+000	9.500000e+000	5.692772e-002
1.336411842349517e-003	2.853389e+000	9.500000e+000	5.706777e-002
1.337592616828008e-003	2.860252e+000	9.500000e+000	5.720504e-002
1.338773391306499e-003	2.866977e+000	9.500000e+000	5.733954e-002
1.339954165784990e-003	2.873563e+000	9.500000e+000	5.747127e-002
1.341134940263481e-003	2.880011e+000	9.500000e+000	5.760022e-002
1.342315714741972e-003	2.886319e+000	9.500000e+000	5.772639e-002
1.344239962497933e-003	2.896222e+000	9.500000e+000	5.792445e-002
1.346164210253894e-003	2.905832e+000	9.500000e+000	5.811664e-002
1.348088458009855e-003	2.915148e+000	9.500000e+000	5.830297e-002
1.350012705765815e-003	2.924172e+000	9.500000e+000	5.848344e-002
1.351936953521776e-003	2.932902e+000	9.500000e+000	5.865805e-002
1.353861201277737e-003	2.941340e+000	9.500000e+000	5.882679e-002
1.355785449033698e-003	2.949484e+000	9.500000e+000	5.898968e-002
1.358301307664427e-003	2.959888e+000	9.500000e+000	5.919775e-002
1.360817166295157e-003	2.970148e+000	9.500000e+000	5.940295e-002
1.363333024925886e-003	2.980264e+000	9.500000e+000	5.960528e-002
1.365848883556616e-003	2.990237e+000	9.500000e+000	5.980474e-002
1.368364742187345e-003	3.000066e+000	9.500000e+000	6.000132e-002
1.370880600818075e-003	3.009751e+000	9.500000e+000	6.019503e-002
1.373396459448804e-003	3.019293e+000	9.500000e+000	6.038587e-002
1.390728951972994e-003	3.083329e+000	9.500000e+000	6.166658e-002
1.408061444497184e-003	3.145249e+000	9.500000e+000	6.290498e-002
1.425393937021374e-003	3.205054e+000	9.500000e+000	6.410109e-002
1.442726429545563e-003	3.262744e+000	9.500000e+000	6.525489e-002
1.460058922069753e-003	3.318319e+000	9.500000e+000	6.636638e-002
1.477391414593943e-003	3.371779e+000	9.500000e+000	6.743558e-002
1.494723907118132e-003	3.423123e+000	9.500000e+000	6.846247e-002
1.528668532251416e-003	3.518517e+000	9.500000e+000	7.037033e-002
1.562613157384699e-003	3.608800e+000	9.500000e+000	7.217601e-002
1.596557782517982e-003	3.693975e+000	9.500000e+000	7.387949e-002
1.630502407651265e-003	3.774039e+000	9.500000e+000	7.548079e-002
1.664447032784548e-003	3.848995e+000	9.500000e+000	7.697989e-002
1.698391657917832e-003	3.918840e+000	9.500000e+000	7.837681e-002
1.732336283051115e-003	3.983577e+000	9.500000e+000	7.967153e-002
1.733336283051115e-003	3.985447e+000	9.500000e+000	7.970893e-002
1.781916308250785e-003	4.070786e+000	9.500000e+000	8.141571e-002
1.830496333450456e-003	4.150098e+000	9.500000e+000	8.300196e-002
1.879076358650127e-003	4.223385e+000	9.500000e+000	8.446769e-002
1.927656383849797e-003	4.290646e+000	9.500000e+000	8.581291e-002
1.976236409049468e-003	4.351881e+000	9.500000e+000	8.703761e-002
2.024816434249139e-003	4.407090e+000	9.500000e+000	8.814179e-002
2.073396459448809e-003	4.456273e+000	9.500000e+000	8.912545e-002
2.122682173734523e-003	4.502277e+000	9.500000e+000	9.004553e-002
2.171967888020237e-003	4.545001e+000	9.500000e+000	9.090002e-002
2.221253602305952e-003	4.584445e+000	9.500000e+000	9.168891e-002
2.270539316591665e-003	4.620610e+000	9.500000e+000	9.241220e-002
2.319825030877379e-003	4.653495e+000	9.500000e+000	9.306990e-002
2.369110745163093e-003	4.683100e+000	9.500000e+000	9.366200e-002
2.418396459448807e-003	4.709426e+000	9.500000e+000	9.418851e-002
2.430993246418000e-003	4.715942e+000	9.500000e+000	9.431884e-002
2.443590033387192e-003	4.722316e+000	9.500000e+000	9.444632e-002
2.456186820356385e-003	4.728548e+000	9.500000e+000	9.457096e-002
2.468783607325577e-003	4.734638e+000	9.500000e+000	9.469276e-002
2.481380394294770e-003	4.740586e+000	9.500000e+000	9.481172e-002
2.493977181263962e-003	4.746392e+000	9.500000e+000	9.492783e-002
2.506573968233155e-003	4.752055e+000	9.500000e+000	9.504110e-002
2.507573968233155e-003	4.752500e+000	9.500000e+000	9.504999e-002
2.556946037403782e-003	4.773108e+000	9.500000e+000	9.546216e-002
2.606318106574410e-003	4.792246e+000	9.500000e+000	9.584491e-002
2.655690175745038e-003	4.809912e+000	9.500000e+000	9.619825e-002
2.705062244915665e-003	4.826108e+000	9.500000e+000	9.652216e-002
2.754434314086293e-003	4.840833e+000	9.500000e+000	9.681665e-002
2.803806383256920e-003	4.854087e+000	9.500000e+000	9.708173e-002
2.853178452427548e-003	4.865870e+000	9.500000e+000	9.731739e-002
2.901464166713265e-003	4.876520e+000	9.500000e+000	9.753041e-002
2.949749880998982e-003	4.886421e+000	9.500000e+000	9.772843e-002
2.998035595284700e-003	4.895573e+000	9.500000e+000	9.791146e-002
3.046321309570417e-003	4.903974e+000	9.500000e+000	9.807948e-002
3.094607023856134e-003	4.911626e+000	9.500000e+000	9.823252e-002
3.142892738141851e-003	4.918528e+000	9.500000e+000	9.837055e-002
3.191178452427568e-003	4.924680e+000	9.500000e+000	9.849359e-002
3.217321309570429e-003	4.927857e+000	9.500000e+000	9.855714e-002
3.243464166713290e-003	4.930900e+000	9.500000e+000	9.861800e-002
3.269607023856150e-003	4.933809e+000	9.500000e+000	9.867619e-002
3.295749880999011e-003	4.936584e+000	9.500000e+000	9.873169e-002
3.321892738141871e-003	4.939225e+000	9.500000e+000	9.878450e-002
3.348035595284732e-003	4.941732e+000	9.500000e+000	9.883464e-002
3.374178452427593e-003	4.944104e+000	9.500000e+000	9.888209e-002
3.375178452427593e-003	4.944193e+000	9.500000e+000	9.888387e-002
3.424607023856171e-003	4.948327e+000	9.500000e+000	9.896653e-002
3.474035595284749e-003	4.952165e+000	9.500000e+000	9.904329e-002
