Circuit: * C:\Users\dbata\OneDrive\Escritorio\Checkpoint 1\Version 2 - Limitador de corriente\Version 2.asc

Warning: Multiple definitions of model "2scr375p" Type: BJT
Warning: Multiple definitions of model "bc857b" Type: BJT
Warning: Multiple definitions of model "bc847c" Type: BJT
Warning: Multiple definitions of model "bc847b" Type: BJT
Direct Newton iteration failed to find .op point.  (Use ".option noopiter" to skip.)
Starting Gmin stepping
Gmin = 10
Gmin = 1.07374
Gmin = 0.115292
Gmin = 0.0123794
Gmin = 0.00132923
Gmin = 0.000142725
Gmin = 1.5325e-005
Gmin = 1.6455e-006
Gmin = 1.76685e-007
Gmin = 1.89714e-008
Gmin = 2.03704e-009
Gmin = 2.18725e-010
Gmin = 2.34854e-011
Gmin = 2.52173e-012
Gmin = 2.70769e-013
Gmin = 0
Gmin stepping succeeded in finding the operating point.

Semiconductor Device Operating Points:
                        --- Bipolar Transistors ---
Name:       q6          q5          q9          q8          q7
Model:    2n3019      d45h11      bc547c      bc547c      bc547c
Ib:       4.43e-07   -1.04e-04    2.74e-06    2.30e-06    2.29e-06
Ic:       1.04e-04   -1.85e-02    1.27e-03    1.04e-03    1.06e-03
Vbe:      5.84e-01   -4.03e-01    6.28e-01    6.23e-01    6.23e-01
Vbc:     -1.77e+01    1.83e+01   -1.24e+00    0.00e+00   -1.26e+00
Vce:      1.83e+01   -1.87e+01    1.86e+00    6.23e-01    1.88e+00
BetaDC:   2.35e+02    1.77e+02    4.62e+02    4.52e+02    4.63e+02
Gm:       4.03e-03    8.39e-01    4.80e-02    3.94e-02    4.04e-02
Rpi:      5.84e+04    2.11e+02    9.56e+03    1.14e+04    1.14e+04
Rx:       1.00e+01    2.35e+00    1.00e+00    1.00e+00    1.00e+00
Ro:       1.13e+06    1.56e+03    4.25e+04    5.06e+04    5.06e+04
Cbe:      6.98e-11    4.71e-09    5.48e-11    5.05e-11    5.09e-11
Cbc:      5.05e-12    1.60e-10    1.58e-12    2.74e-12    1.57e-12
Cjs:      0.00e+00    0.00e+00    0.00e+00    0.00e+00    0.00e+00
BetaAC:   2.35e+02    1.77e+02    4.59e+02    4.49e+02    4.60e+02
Cbx:      0.00e+00    3.93e-11    9.72e-13    1.69e-12    9.67e-13
Ft:       8.58e+06    2.72e+07    1.33e+08    1.14e+08    1.20e+08

Name:       q2          q1          q4          q3
Model:    bc547c      bc547c      bc557c      bc557c
Ib:      -3.78e-12    1.77e-06   -1.64e-06   -2.38e-06
Ic:       1.90e-12    1.06e-03   -1.27e-03   -1.06e-03
Vbe:     -1.87e+00    6.16e-01   -6.10e-01   -6.20e-01
Vbc:     -1.87e+00   -1.68e+01    1.74e+01    0.00e+00
Vce:     -5.41e-04    1.74e+01   -1.81e+01   -6.20e-01
BetaDC:  -5.03e-01    5.98e+02    7.73e+02    4.44e+02
Gm:      -1.18e-43    4.04e-02    4.79e-02    3.97e-02
Rpi:      1.00e+12    1.47e+04    1.61e+04    1.11e+04
Rx:       1.00e+00    1.00e+00    1.00e+00    1.00e+00
Ro:       4.03e+42    6.54e+04    3.25e+04    2.24e+04
Cbe:      7.47e-12    5.05e-11    5.66e-11    5.27e-11
Cbc:      1.43e-12    7.94e-13    1.03e-12    4.91e-12
Cjs:      0.00e+00    0.00e+00    0.00e+00    0.00e+00
BetaAC:  -1.18e-31    5.95e+02    7.72e+02    4.40e+02
Cbx:      8.77e-13    4.88e-13    6.07e-13    2.90e-12
Ft:       1.63e-02    1.24e+08    1.31e+08    1.04e+08



vo1rc: v(vo)=5.0424 at 100
vo2rc: v(vo)=0.103753 at 5
io1rc: i(rl)=0.050424 at 100
io2rc: i(rl)=0.0207505 at 5
regcar: (-(vo2rc-vo1rc)/(io2rc-io1rc))=-166.433


Date: Thu Mar 27 18:18:49 2025
Total elapsed time: 4.533 seconds.

tnom = 27
temp = 27
method = trap
totiter = 10
traniter = 0
tranpoints = 0
accept = 0
rejected = 0
matrix size = 41
fillins = 34
solver = Normal
Matrix Compiler1: 5.25 KB object code size
Matrix Compiler2: 4.28 KB object code size
