rl	V(vo)	I(Rl)
1.000000000000023e-003	4.279988e-004	4.279988e-001
1.039122303835193e-003	4.447470e-004	4.280025e-001
1.079775162327734e-003	4.621507e-004	4.280064e-001
1.122018454301989e-003	4.802356e-004	4.280104e-001
1.165914401179858e-003	4.990284e-004	4.280146e-001
1.211527658628616e-003	5.185569e-004	4.280190e-001
1.258925411794196e-003	5.388497e-004	4.280235e-001
1.308177474260224e-003	5.599369e-004	4.280282e-001
1.359356390878556e-003	5.818495e-004	4.280331e-001
1.412537544622786e-003	6.046200e-004	4.280382e-001
1.467799267622102e-003	6.282819e-004	4.280435e-001
1.525222956539053e-003	6.528700e-004	4.280489e-001
1.584893192461149e-003	6.784209e-004	4.280546e-001
1.646897865482905e-003	7.049720e-004	4.280606e-001
1.711328304161819e-003	7.325627e-004	4.280667e-001
1.778279410038962e-003	7.612336e-004	4.280731e-001
1.847849797422332e-003	7.910271e-004	4.280798e-001
1.920141938638844e-003	8.219871e-004	4.280866e-001
1.995262314968923e-003	8.541595e-004	4.280938e-001
2.073321573486000e-003	8.875916e-004	4.281013e-001
2.154434690031931e-003	9.223329e-004	4.281090e-001
2.238721138568388e-003	9.584347e-004	4.281171e-001
2.326305067153676e-003	9.959504e-004	4.281254e-001
2.417315480804156e-003	1.034935e-003	4.281341e-001
2.511886431509634e-003	1.075447e-003	4.281432e-001
2.610157215682592e-003	1.117546e-003	4.281526e-001
2.712272579332086e-003	1.161293e-003	4.281623e-001
2.818382931264513e-003	1.206754e-003	4.281724e-001
2.928644564625298e-003	1.253996e-003	4.281830e-001
3.043219887107786e-003	1.303088e-003	4.281939e-001
3.162277660168445e-003	1.354104e-003	4.282053e-001
3.285993247600723e-003	1.407119e-003	4.282171e-001
3.414548873833672e-003	1.462210e-003	4.282294e-001
3.548133892335828e-003	1.519461e-003	4.282422e-001
3.686945064519651e-003	1.578954e-003	4.282554e-001
3.831186849557367e-003	1.640779e-003	4.282692e-001
3.981071705535054e-003	1.705028e-003	4.282836e-001
4.136820402388592e-003	1.771794e-003	4.282984e-001
4.298662347082365e-003	1.841177e-003	4.283139e-001
4.466835921509722e-003	1.913280e-003	4.283300e-001
4.641588833612873e-003	1.988209e-003	4.283467e-001
4.823178482239404e-003	2.066076e-003	4.283641e-001
5.011872336272824e-003	2.146997e-003	4.283821e-001
5.207948328595568e-003	2.231090e-003	4.284009e-001
5.411695265464745e-003	2.318481e-003	4.284204e-001
5.623413251903603e-003	2.409299e-003	4.284406e-001
5.843414133735292e-003	2.503679e-003	4.284616e-001
6.072021956910006e-003	2.601761e-003	4.284835e-001
6.309573444802057e-003	2.703692e-003	4.285063e-001
6.556418494179918e-003	2.809621e-003	4.285299e-001
6.812920690579746e-003	2.919707e-003	4.285544e-001
7.079457843841517e-003	3.034114e-003	4.285799e-001
7.356422544596557e-003	3.153010e-003	4.286065e-001
7.644222742526151e-003	3.276574e-003	4.286340e-001
7.943282347242968e-003	3.404988e-003	4.286626e-001
8.254041852680343e-003	3.538445e-003	4.286924e-001
8.576958985909105e-003	3.677142e-003	4.287233e-001
8.912509381337625e-003	3.821287e-003	4.287555e-001
9.261187281288111e-003	3.971094e-003	4.287889e-001
9.623506263981068e-003	4.126787e-003	4.288236e-001
1.000000000000019e-002	4.288597e-003	4.288597e-001
1.039122303835189e-002	4.456766e-003	4.288972e-001
1.079775162327730e-002	4.631546e-003	4.289362e-001
1.122018454301984e-002	4.813198e-003	4.289767e-001
1.165914401179853e-002	5.001992e-003	4.290188e-001
1.211527658628611e-002	5.198211e-003	4.290625e-001
1.258925411794191e-002	5.402150e-003	4.291080e-001
1.308177474260218e-002	5.614113e-003	4.291553e-001
1.359356390878551e-002	5.834417e-003	4.292044e-001
1.412537544622780e-002	6.063394e-003	4.292555e-001
1.467799267622096e-002	6.301387e-003	4.293085e-001
1.525222956539047e-002	6.548753e-003	4.293637e-001
1.584893192461142e-002	6.805865e-003	4.294210e-001
1.646897865482898e-002	7.073107e-003	4.294806e-001
1.711328304161812e-002	7.350883e-003	4.295425e-001
1.778279410038955e-002	7.639612e-003	4.296069e-001
1.847849797422324e-002	7.939728e-003	4.296739e-001
1.920141938638836e-002	8.251684e-003	4.297434e-001
1.995262314968915e-002	8.575952e-003	4.298157e-001
2.073321573485992e-002	8.913021e-003	4.298909e-001
2.154434690031921e-002	9.263402e-003	4.299690e-001
2.238721138568379e-002	9.627626e-003	4.300503e-001
2.326305067153667e-002	1.000625e-002	4.301347e-001
2.417315480804146e-002	1.039983e-002	4.302225e-001
2.511886431509624e-002	1.080899e-002	4.303137e-001
2.610157215682582e-002	1.123434e-002	4.304085e-001
2.712272579332075e-002	1.167653e-002	4.305072e-001
2.818382931264502e-002	1.213623e-002	4.306097e-001
2.928644564625286e-002	1.261415e-002	4.307162e-001
3.043219887107773e-002	1.311101e-002	4.308270e-001
3.162277660168433e-002	1.362759e-002	4.309422e-001
3.285993247600710e-002	1.416467e-002	4.310620e-001
3.414548873833659e-002	1.472307e-002	4.311865e-001
3.548133892335813e-002	1.530367e-002	4.313160e-001
3.686945064519637e-002	1.590735e-002	4.314506e-001
3.831186849557351e-002	1.653504e-002	4.315906e-001
3.981071705535038e-002	1.718772e-002	4.317361e-001
4.136820402388575e-002	1.786641e-002	4.318874e-001
4.298662347082347e-002	1.857215e-002	4.320448e-001
4.466835921509704e-002	1.930605e-002	4.322085e-001
4.641588833612854e-002	2.006924e-002	4.323787e-001
4.823178482239385e-002	2.086293e-002	4.325557e-001
5.011872336272804e-002	2.168836e-002	4.327397e-001
5.207948328595548e-002	2.254683e-002	4.329312e-001
5.411695265464724e-002	2.343969e-002	4.331303e-001
5.623413251903581e-002	2.436835e-002	4.333374e-001
5.843414133735270e-002	2.533428e-002	4.335527e-001
6.072021956909982e-002	2.633902e-002	4.337768e-001
6.309573444802033e-002	2.738417e-002	4.340099e-001
6.556418494179893e-002	2.847140e-002	4.342523e-001
6.812920690579720e-002	2.960245e-002	4.345045e-001
7.079457843841490e-002	3.077914e-002	4.347669e-001
7.356422544596528e-002	3.200337e-002	4.350399e-001
7.644222742526120e-002	3.327713e-002	4.353240e-001
7.943282347242937e-002	3.460249e-002	4.356195e-001
8.254041852680311e-002	3.598160e-002	4.359270e-001
8.576958985909072e-002	3.741673e-002	4.362471e-001
8.912509381337591e-002	3.891024e-002	4.365801e-001
9.261187281288076e-002	4.046460e-002	4.369267e-001
9.623506263981033e-002	4.208239e-002	4.372875e-001
1.000000000000015e-001	4.376630e-002	4.376630e-001
1.039122303835185e-001	4.551915e-002	4.380538e-001
1.079775162327726e-001	4.734390e-002	4.384608e-001
1.122018454301980e-001	4.924364e-002	4.388844e-001
1.165914401179849e-001	5.122159e-002	4.393255e-001
1.211527658628607e-001	5.328114e-002	4.397847e-001
1.258925411794186e-001	5.542582e-002	4.402630e-001
1.308177474260213e-001	5.765937e-002	4.407610e-001
1.359356390878546e-001	5.998565e-002	4.412798e-001
1.412537544622775e-001	6.240875e-002	4.418201e-001
1.467799267622091e-001	6.493294e-002	4.423830e-001
1.525222956539041e-001	6.756271e-002	4.429694e-001
1.584893192461137e-001	7.030275e-002	4.435804e-001
1.646897865482892e-001	7.315803e-002	4.442171e-001
1.711328304161806e-001	7.613369e-002	4.448807e-001
1.778279410038949e-001	7.923520e-002	4.455723e-001
1.847849797422317e-001	8.246829e-002	4.462932e-001
1.920141938638829e-001	8.583896e-002	4.470448e-001
1.995262314968908e-001	8.935355e-002	4.478286e-001
2.073321573485984e-001	9.301872e-002	4.486459e-001
2.154434690031914e-001	9.684148e-002	4.494983e-001
2.238721138568371e-001	1.008292e-001	4.503876e-001
2.326305067153658e-001	1.049897e-001	4.513153e-001
2.417315480804137e-001	1.093312e-001	4.522834e-001
2.511886431509615e-001	1.138623e-001	4.532938e-001
2.610157215682573e-001	1.185921e-001	4.543485e-001
2.712272579332065e-001	1.235304e-001	4.554497e-001
2.818382931264492e-001	1.286873e-001	4.565997e-001
2.928644564625276e-001	1.340736e-001	4.578007e-001
3.043219887107763e-001	1.397007e-001	4.590555e-001
3.162277660168422e-001	1.455807e-001	4.603667e-001
3.285993247600698e-001	1.517265e-001	4.617372e-001
3.414548873833647e-001	1.581516e-001	4.631699e-001
3.548133892335801e-001	1.648705e-001	4.646681e-001
3.686945064519623e-001	1.718984e-001	4.662353e-001
3.831186849557337e-001	1.792516e-001	4.678749e-001
3.981071705535024e-001	1.869476e-001	4.695911e-001
4.136820402388560e-001	1.950046e-001	4.713877e-001
4.298662347082332e-001	2.034424e-001	4.732692e-001
4.466835921509688e-001	2.122820e-001	4.752403e-001
4.641588833612837e-001	2.215458e-001	4.773060e-001
4.823178482239366e-001	2.312577e-001	4.794716e-001
5.011872336272785e-001	2.414434e-001	4.817429e-001
5.207948328595528e-001	2.521303e-001	4.841259e-001
5.411695265464703e-001	2.633478e-001	4.866273e-001
5.623413251903560e-001	2.751277e-001	4.892540e-001
5.843414133735247e-001	2.875040e-001	4.920137e-001
6.072021956909960e-001	3.005132e-001	4.949145e-001
6.309573444802009e-001	3.141949e-001	4.979653e-001
6.556418494179868e-001	3.285916e-001	5.011755e-001
6.812920690579695e-001	3.437496e-001	5.045555e-001
7.079457843841464e-001	3.597188e-001	5.081162e-001
7.356422544596500e-001	3.765532e-001	5.118700e-001
7.644222742526092e-001	3.943118e-001	5.158298e-001
7.943282347242908e-001	4.130586e-001	5.200099e-001
8.254041852680281e-001	4.328634e-001	5.244260e-001
8.576958985909041e-001	4.538026e-001	5.290949e-001
8.912509381337559e-001	4.759595e-001	5.340354e-001
9.261187281288041e-001	4.994260e-001	5.392678e-001
9.623506263980995e-001	5.243028e-001	5.448147e-001
1.000000000000011e+000	5.507007e-001	5.507007e-001
1.039122303835181e+000	5.787425e-001	5.569533e-001
1.079775162327722e+000	6.085640e-001	5.636025e-001
1.122018454301976e+000	6.403159e-001	5.706822e-001
1.165914401179845e+000	6.741664e-001	5.782297e-001
1.211527658628602e+000	7.103028e-001	5.862869e-001
1.258925411794181e+000	7.489355e-001	5.949005e-001
1.308177474260208e+000	7.903007e-001	6.041234e-001
1.359356390878540e+000	8.346651e-001	6.140149e-001
1.412537544622769e+000	8.823307e-001	6.246423e-001
1.467799267622085e+000	9.336408e-001	6.360821e-001
1.525222956539035e+000	9.889878e-001	6.484218e-001
1.584893192461130e+000	1.048822e+000	6.617616e-001
1.646897865482885e+000	1.113661e+000	6.762173e-001
1.711328304161798e+000	1.184107e+000	6.919226e-001
1.778279410038941e+000	1.260860e+000	7.090338e-001
1.847849797422310e+000	1.344743e+000	7.277341e-001
1.920141938638821e+000	1.436726e+000	7.482397e-001
1.995262314968900e+000	1.537964e+000	7.708077e-001
2.073321573485976e+000	1.649837e+000	7.957461e-001
2.154434690031905e+000	1.774021e+000	8.234274e-001
2.238721138568361e+000	1.912553e+000	8.543062e-001
2.326305067153649e+000	2.067952e+000	8.889427e-001
2.417315480804127e+000	2.243356e+000	9.280361e-001
2.511886431509604e+000	2.442733e+000	9.724696e-001
2.610157215682562e+000	2.671171e+000	1.023376e+000
2.712272579332054e+000	2.935303e+000	1.082230e+000
2.818382931264480e+000	3.243935e+000	1.150992e+000
2.928644564625264e+000	3.609021e+000	1.232318e+000
3.043219887107750e+000	4.047183e+000	1.329902e+000
3.162277660168408e+000	4.582024e+000	1.448963e+000
3.285993247600684e+000	4.957364e+000	1.508635e+000
3.414548873833632e+000	4.990409e+000	1.461513e+000
3.548133892335786e+000	4.992604e+000	1.407107e+000
3.686945064519608e+000	4.993256e+000	1.354307e+000
3.831186849557321e+000	4.993796e+000	1.303459e+000
3.981071705535007e+000	4.994348e+000	1.254523e+000
4.136820402388542e+000	4.994757e+000	1.207390e+000
4.298662347082313e+000	4.995185e+000	1.162032e+000
4.466835921509669e+000	4.995586e+000	1.118373e+000
4.641588833612818e+000	4.995960e+000	1.076347e+000
4.823178482239348e+000	4.996308e+000	1.035895e+000
5.011872336272765e+000	4.996634e+000	9.969596e-001
5.207948328595506e+000	4.996940e+000	9.594833e-001
5.411695265464681e+000	4.997226e+000	9.234122e-001
5.623413251903537e+000	4.997494e+000	8.886941e-001
5.843414133735223e+000	4.997746e+000	8.552785e-001
6.072021956909934e+000	4.997984e+000	8.231169e-001
6.309573444801982e+000	4.998208e+000	7.921625e-001
6.556418494179840e+000	4.998418e+000	7.623703e-001
6.812920690579666e+000	4.998617e+000	7.336967e-001
7.079457843841434e+000	4.998805e+000	7.061000e-001
7.356422544596470e+000	4.998983e+000	6.795399e-001
7.644222742526060e+000	4.999151e+000	6.539776e-001
7.943282347242874e+000	4.999310e+000	6.293758e-001
8.254041852680246e+000	4.999460e+000	6.056985e-001
8.576958985909004e+000	4.999603e+000	5.829110e-001
8.912509381337520e+000	4.999739e+000	5.609799e-001
9.261187281288001e+000	4.999867e+000	5.398733e-001
9.623506263980953e+000	4.999990e+000	5.195601e-001
1.000000000000007e+001	5.000106e+000	5.000106e-001
1.039122303835176e+001	5.000216e+000	4.811961e-001
1.079775162327717e+001	5.000321e+000	4.630891e-001
1.122018454301971e+001	5.000422e+000	4.456631e-001
1.165914401179840e+001	5.000517e+000	4.288923e-001
1.211527658628597e+001	5.000608e+000	4.127523e-001
1.258925411794176e+001	5.000695e+000	3.972193e-001
1.308177474260203e+001	5.000777e+000	3.822706e-001
1.359356390878534e+001	5.000856e+000	3.678841e-001
1.412537544622763e+001	5.000932e+000	3.540389e-001
1.467799267622079e+001	5.001004e+000	3.407144e-001
1.525222956539028e+001	5.001072e+000	3.278912e-001
1.584893192461123e+001	5.001138e+000	3.155505e-001
1.646897865482879e+001	5.001201e+000	3.036740e-001
1.711328304161791e+001	5.001261e+000	2.922444e-001
1.778279410038934e+001	5.001319e+000	2.812448e-001
1.847849797422302e+001	5.001374e+000	2.706591e-001
1.920141938638813e+001	5.001427e+000	2.604717e-001
1.995262314968891e+001	5.001477e+000	2.506677e-001
2.073321573485967e+001	5.001525e+000	2.412325e-001
2.154434690031896e+001	5.001572e+000	2.321524e-001
2.238721138568352e+001	5.001616e+000	2.234140e-001
2.326305067153639e+001	5.001659e+000	2.150044e-001
2.417315480804117e+001	5.001700e+000	2.069113e-001
2.511886431509594e+001	5.001739e+000	1.991228e-001
2.610157215682551e+001	5.001777e+000	1.916274e-001
2.712272579332043e+001	5.001826e+000	1.844146e-001
2.818382931264469e+001	5.001847e+000	1.774722e-001
2.928644564625252e+001	5.001881e+000	1.707917e-001
3.043219887107738e+001	5.001913e+000	1.643625e-001
3.162277660168396e+001	5.001944e+000	1.581753e-001
3.285993247600671e+001	5.001973e+000	1.522210e-001
3.414548873833619e+001	5.002001e+000	1.464908e-001
3.548133892335773e+001	5.002028e+000	1.409763e-001
3.686945064519594e+001	5.002055e+000	1.356694e-001
3.831186849557307e+001	5.002080e+000	1.305621e-001
3.981071705534992e+001	5.002104e+000	1.256472e-001
4.136820402388527e+001	5.002127e+000	1.209172e-001
4.298662347082298e+001	5.002150e+000	1.163653e-001
4.466835921509652e+001	5.002172e+000	1.119847e-001
4.641588833612801e+001	5.002192e+000	1.077690e-001
4.823178482239329e+001	5.002212e+000	1.037119e-001
5.011872336272746e+001	5.002231e+000	9.980763e-002
5.207948328595487e+001	5.002250e+000	9.605030e-002
5.411695265464661e+001	5.002268e+000	9.243439e-002
5.623413251903516e+001	5.002285e+000	8.895461e-002
5.843414133735202e+001	5.002301e+000	8.560580e-002
6.072021956909912e+001	5.002317e+000	8.238306e-002
6.309573444801959e+001	5.002333e+000	7.928163e-002
6.556418494179816e+001	5.002347e+000	7.629696e-002
6.812920690579641e+001	5.002362e+000	7.342463e-002
7.079457843841408e+001	5.002376e+000	7.066043e-002
7.356422544596443e+001	5.002389e+000	6.800029e-002
7.644222742526033e+001	5.002402e+000	6.544029e-002
7.943282347242845e+001	5.002414e+000	6.297667e-002
8.254041852680216e+001	5.002426e+000	6.060578e-002
8.576958985908973e+001	5.002438e+000	5.832414e-002
8.912509381337489e+001	5.002449e+000	5.612840e-002
9.261187281287970e+001	5.002460e+000	5.401531e-002
9.623506263980922e+001	5.002470e+000	5.198178e-002
1.000000000000004e+002	5.002480e+000	5.002480e-002
1.039122303835173e+002	5.002490e+000	4.814149e-002
1.079775162327713e+002	5.002499e+000	4.632908e-002
1.122018454301967e+002	5.002508e+000	4.458490e-002
1.165914401179836e+002	5.002516e+000	4.290638e-002
1.211527658628592e+002	5.002525e+000	4.129105e-002
1.258925411794171e+002	5.002533e+000	3.973653e-002
1.308177474260198e+002	5.002541e+000	3.824054e-002
1.359356390878530e+002	5.002549e+000	3.680086e-002
1.412537544622759e+002	5.002556e+000	3.541538e-002
1.467799267622074e+002	5.002563e+000	3.408207e-002
1.525222956539024e+002	5.002570e+000	3.279894e-002
1.584893192461119e+002	5.002576e+000	3.156412e-002
1.646897865482873e+002	5.002583e+000	3.037579e-002
1.711328304161786e+002	5.002589e+000	2.923220e-002
1.778279410038928e+002	5.002595e+000	2.813166e-002
1.847849797422296e+002	5.002601e+000	2.707255e-002
1.920141938638807e+002	5.002607e+000	2.605332e-002
1.995262314968885e+002	5.002613e+000	2.507246e-002
2.073321573485960e+002	5.002618e+000	2.412852e-002
2.154434690031889e+002	5.002623e+000	2.322012e-002
2.238721138568345e+002	5.002628e+000	2.234592e-002
2.326305067153632e+002	5.002633e+000	2.150463e-002
2.417315480804110e+002	5.002637e+000	2.069501e-002
2.511886431509586e+002	5.002642e+000	1.991588e-002
2.610157215682543e+002	5.002646e+000	1.916607e-002
2.712272579332034e+002	5.002651e+000	1.844450e-002
2.818382931264460e+002	5.002655e+000	1.775009e-002
2.928644564625243e+002	5.002659e+000	1.708182e-002
3.043219887107728e+002	5.002663e+000	1.643872e-002
3.162277660168386e+002	5.002667e+000	1.581982e-002
3.285993247600661e+002	5.002671e+000	1.522423e-002
3.414548873833608e+002	5.002674e+000	1.465105e-002
3.548133892335761e+002	5.002677e+000	1.409946e-002
3.686945064519582e+002	5.002681e+000	1.356864e-002
3.831186849557294e+002	5.002685e+000	1.305779e-002
3.981071705534979e+002	5.002687e+000	1.256618e-002
4.136820402388514e+002	5.002691e+000	1.209308e-002
4.298662347082284e+002	5.002694e+000	1.163779e-002
4.466835921509638e+002	5.002697e+000	1.119964e-002
4.641588833612786e+002	5.002700e+000	1.077799e-002
4.823178482239313e+002	5.002703e+000	1.037221e-002
5.011872336272729e+002	5.002705e+000	9.981710e-003
5.207948328595470e+002	5.002708e+000	9.605910e-003
5.411695265464643e+002	5.002710e+000	9.244258e-003
5.623413251903497e+002	5.002713e+000	8.896221e-003
5.843414133735182e+002	5.002716e+000	8.561289e-003
6.072021956909891e+002	5.002718e+000	8.238966e-003
6.309573444801938e+002	5.002720e+000	7.928777e-003
6.556418494179794e+002	5.002723e+000	7.630267e-003
6.812920690579618e+002	5.002725e+000	7.342996e-003
7.079457843841384e+002	5.002727e+000	7.066540e-003
7.356422544596418e+002	5.002729e+000	6.800492e-003
7.644222742526007e+002	5.002731e+000	6.544460e-003
7.943282347242819e+002	5.002733e+000	6.298068e-003
8.254041852680188e+002	5.002735e+000	6.060952e-003
8.576958985908944e+002	5.002787e+000	5.832822e-003
8.912509381337458e+002	5.002739e+000	5.613165e-003
9.261187281287937e+002	5.002741e+000	5.401835e-003
9.623506263980887e+002	5.002743e+000	5.198461e-003
1.000000000000000e+003	5.002744e+000	5.002744e-003
