Circuit: * C:\Users\Lionheart\Desktop\Checkpoint 3\LTSpice\Regulacion de carga\Regulacion de Carga.asc

Direct Newton iteration failed to find .op point.  (Use ".option noopiter" to skip.)
Starting Gmin stepping
Gmin = 10
Gmin = 1.07374
Gmin = 0.115292
Gmin = 0.0123794
Gmin = 0.00132923
Gmin = 0.000142725
Gmin = 1.5325e-005
Gmin = 1.6455e-006
Gmin = 1.76685e-007
Gmin = 1.89714e-008
Gmin = 2.03704e-009
Gmin = 2.18725e-010
Gmin = 2.34854e-011
Gmin = 2.52173e-012
Gmin = 2.70769e-013
Gmin = 0
Gmin stepping succeeded in finding the operating point.

Semiconductor Device Operating Points:
                        --- Diodes ---
Name:    d:u1:3      d:u1:2      d:u1:1
Model:  u1:d3mod    u1:d2mod    u1:d4mod
Id:     -1.24e-12   -7.00e-09   -7.00e-09
Vd:     -1.23e+00   -3.14e+00   -6.37e-01
Req:     1.00e+12    1.00e+12    6.21e+11
CAP:     0.00e+00    1.76e-12    2.89e-12

                        --- Bipolar Transistors ---
Name:     q:u1:2      q:u1:1        q5          q10         q9
Model:   u1:qn3904   u1:qn3904    tip42c      bc547c      bc547c
Ib:       8.35e-05    2.14e-06   -4.11e-03    3.87e-06    2.23e-06
Ic:       6.19e-03    1.71e-04   -4.23e-01    1.96e-03    1.03e-03
Vbe:      5.92e-01    6.00e-01   -7.68e-01    6.37e-01    6.22e-01
Vbc:     -2.54e+00   -1.90e+00    7.79e+00   -6.36e+00   -9.74e-01
Vce:      3.14e+00    2.50e+00   -8.56e+00    7.00e+00    1.60e+00
BetaDC:   7.41e+01    7.99e+01    1.03e+02    5.05e+02    4.61e+02
Gm:       2.38e-01    6.57e-03    1.32e+01    7.39e-02    3.90e-02
Rpi:      4.14e+02    1.60e+04    6.51e+00    6.76e+03    1.17e+04
Rx:       0.00e+00    0.00e+00    1.00e-01    1.00e+00    1.00e+00
Ro:       1.66e+04    5.96e+05    2.55e+02    3.01e+04    5.21e+04
Cbe:      4.32e-10    9.41e-12    3.07e-07    6.75e-11    5.02e-11
Cbc:      1.07e-10    2.31e-12    1.80e-10    1.04e-12    1.67e-12
Cjs:      0.00e+00    0.00e+00    0.00e+00    0.00e+00    0.00e+00
BetaAC:   9.87e+01    1.05e+02    8.60e+01    4.99e+02    4.58e+02
Cbx:      0.00e+00    0.00e+00    0.00e+00    6.37e-13    1.03e-12
Ft:       7.02e+07    8.92e+07    6.83e+06    1.70e+08    1.17e+08

Name:       q8          q7          q6          q2          q1
Model:    bc547c      bc547c      bc547c      bc547c      bc547c
Ib:       2.27e-06    2.25e-06    8.14e-06   -3.51e-12    2.04e-06
Ic:       1.03e-03    1.03e-03    4.11e-03    1.62e-12    1.03e-03
Vbe:      6.23e-01    6.22e-01    6.57e-01   -1.88e+00    6.20e-01
Vbc:      0.00e+00   -4.12e-01   -7.14e+00   -1.60e+00   -5.90e+00
Vce:      6.23e-01    1.03e+00    7.79e+00   -2.82e-01    6.52e+00
BetaDC:   4.52e+02    4.56e+02    5.05e+02   -4.63e-01    5.03e+02
Gm:       3.90e-02    3.90e-02    1.53e-01   -9.13e-39    3.90e-02
Rpi:      1.15e+04    1.16e+04    3.21e+03    1.00e+12    1.28e+04
Rx:       1.00e+00    1.00e+00    1.00e+00    1.00e+00    1.00e+00
Ro:       5.12e+04    5.15e+04    1.45e+04    1.09e+38    5.70e+04
Cbe:      5.03e-11    5.03e-11    1.06e-10    7.47e-12    5.01e-11
Cbc:      2.74e-12    2.01e-12    1.00e-12    1.49e-12    1.06e-12
Cjs:      0.00e+00    0.00e+00    0.00e+00    0.00e+00    0.00e+00
BetaAC:   4.50e+02    4.53e+02    4.93e+02   -9.13e-27    5.01e+02
Cbx:      1.69e-12    1.23e-12    6.17e-13    9.13e-13    6.50e-13
Ft:       1.14e+08    1.16e+08    2.27e+08    1.61e-02    1.20e+08

Name:       q4          q3
Model:    bc557c      bc557c
Ib:      -1.81e-06   -2.30e-06
Ic:      -1.04e-03   -1.02e-03
Vbe:     -6.13e-01   -6.19e-01
Vbc:      6.80e+00    0.00e+00
Vce:     -7.42e+00   -6.19e-01
BetaDC:   5.73e+02    4.44e+02
Gm:       3.91e-02    3.84e-02
Rpi:      1.46e+04    1.15e+04
Rx:       1.00e+00    1.00e+00
Ro:       2.94e+04    2.31e+04
Cbe:      5.21e-11    5.20e-11
Cbc:      1.54e-12    4.91e-12
Cjs:      0.00e+00    0.00e+00
BetaAC:   5.71e+02    4.41e+02
Cbx:      9.12e-13    2.90e-12
Ft:       1.14e+08    1.02e+08



vo1rc: v(vo)=5.00248 at 100
vo2rc: v(vo)=4.99661 at 5
io1rc: i(rl)=0.0500248 at 100
io2rc: i(rl)=0.999409 at 5
regcar: (-(vo2rc-vo1rc)/(io2rc-io1rc))=0.00617878


Date: Thu May 08 15:11:54 2025
Total elapsed time: 10.468 seconds.

tnom = 27
temp = 27
method = trap
totiter = 2012
traniter = 0
tranpoints = 0
accept = 0
rejected = 0
matrix size = 56
fillins = 69
solver = Normal
Matrix Compiler1: 7.99 KB object code size
Matrix Compiler2: 6.21 KB object code size  0.6/0.6/[0.3]

