rl	V(vo)	I(RL)
1.000000000000000e-03	4.280170e-04	4.280170e-01
1.011579454259899e-03	4.329743e-04	4.280181e-01
1.023292992280754e-03	4.379891e-04	4.280192e-01
1.035142166679344e-03	4.430619e-04	4.280204e-01
1.047128548050900e-03	4.481935e-04	4.280215e-01
1.059253725177289e-03	4.533846e-04	4.280227e-01
1.071519305237607e-03	4.586358e-04	4.280238e-01
1.083926914021204e-03	4.639478e-04	4.280250e-01
1.096478196143186e-03	4.693214e-04	4.280262e-01
1.109174815262402e-03	4.747573e-04	4.280274e-01
1.122018454301964e-03	4.802560e-04	4.280287e-01
1.135010815672316e-03	4.858186e-04	4.280299e-01
1.148153621496884e-03	4.914455e-04	4.280311e-01
1.161448613840344e-03	4.971377e-04	4.280324e-01
1.174897554939531e-03	5.028957e-04	4.280337e-01
1.188502227437020e-03	5.087206e-04	4.280350e-01
1.202264434617414e-03	5.146128e-04	4.280363e-01
1.216186000646369e-03	5.205734e-04	4.280376e-01
1.230268770812383e-03	5.266030e-04	4.280390e-01
1.244514611771387e-03	5.327025e-04	4.280404e-01
1.258925411794169e-03	5.388726e-04	4.280417e-01
1.273503081016663e-03	5.451142e-04	4.280431e-01
1.288249551693136e-03	5.514282e-04	4.280445e-01
1.303166778452301e-03	5.578152e-04	4.280460e-01
1.318256738556409e-03	5.642764e-04	4.280474e-01
1.333521432163326e-03	5.708123e-04	4.280488e-01
1.348962882591656e-03	5.774240e-04	4.280503e-01
1.364583136588927e-03	5.841123e-04	4.280518e-01
1.380384264602887e-03	5.908781e-04	4.280533e-01
1.396368361055940e-03	5.977222e-04	4.280549e-01
1.412537544622757e-03	6.046458e-04	4.280564e-01
1.428893958511106e-03	6.116494e-04	4.280580e-01
1.445439770745931e-03	6.187343e-04	4.280595e-01
1.462177174456721e-03	6.259012e-04	4.280611e-01
1.479108388168211e-03	6.331512e-04	4.280628e-01
1.496235656094437e-03	6.404852e-04	4.280644e-01
1.513561248436212e-03	6.479042e-04	4.280660e-01
1.531087461682034e-03	6.554091e-04	4.280677e-01
1.548816618912485e-03	6.630010e-04	4.280694e-01
1.566751070108153e-03	6.706809e-04	4.280711e-01
1.584893192461118e-03	6.784498e-04	4.280729e-01
1.603245390690046e-03	6.863087e-04	4.280746e-01
1.621810097358935e-03	6.942586e-04	4.280764e-01
1.640589773199544e-03	7.023007e-04	4.280782e-01
1.659586907437566e-03	7.104360e-04	4.280800e-01
1.678804018122565e-03	7.186655e-04	4.280818e-01
1.698243652461749e-03	7.269904e-04	4.280837e-01
1.717908387157594e-03	7.354118e-04	4.280856e-01
1.737800828749381e-03	7.439308e-04	4.280875e-01
1.757923613958698e-03	7.525485e-04	4.280894e-01
1.778279410038929e-03	7.612660e-04	4.280913e-01
1.798870915128794e-03	7.700846e-04	4.280933e-01
1.819700858609990e-03	7.790053e-04	4.280953e-01
1.840772001468962e-03	7.880295e-04	4.280973e-01
1.862087136662874e-03	7.971583e-04	4.280993e-01
1.883649089489808e-03	8.063928e-04	4.281014e-01
1.905460717963254e-03	8.157344e-04	4.281035e-01
1.927524913190943e-03	8.251842e-04	4.281056e-01
1.949844599758053e-03	8.347435e-04	4.281077e-01
1.972422736114861e-03	8.444136e-04	4.281099e-01
1.995262314968888e-03	8.541959e-04	4.281121e-01
2.018366363681569e-03	8.640914e-04	4.281143e-01
2.041737944669538e-03	8.741017e-04	4.281165e-01
2.065380155810538e-03	8.842280e-04	4.281188e-01
2.089296130854048e-03	8.944717e-04	4.281210e-01
2.113489039836656e-03	9.048340e-04	4.281234e-01
2.137962089502242e-03	9.153165e-04	4.281257e-01
2.162718523727030e-03	9.259204e-04	4.281281e-01
2.187761623949562e-03	9.366474e-04	4.281304e-01
2.213094709605648e-03	9.474986e-04	4.281329e-01
2.238721138568350e-03	9.584756e-04	4.281353e-01
2.264644307593070e-03	9.695798e-04	4.281378e-01
2.290867652767784e-03	9.808127e-04	4.281403e-01
2.317394649968490e-03	9.921759e-04	4.281428e-01
2.344228815319934e-03	1.003671e-03	4.281454e-01
2.371373705661667e-03	1.015299e-03	4.281480e-01
2.398832919019503e-03	1.027062e-03	4.281506e-01
2.426610095082428e-03	1.038961e-03	4.281532e-01
2.454708915685043e-03	1.050998e-03	4.281560e-01
2.483133105295584e-03	1.063175e-03	4.281587e-01
2.511886431509593e-03	1.075493e-03	4.281614e-01
2.540972705549318e-03	1.087953e-03	4.281642e-01
2.570395782768878e-03	1.100559e-03	4.281670e-01
2.600159563165286e-03	1.113310e-03	4.281698e-01
2.630267991895396e-03	1.126209e-03	4.281727e-01
2.660725059798825e-03	1.139258e-03	4.281756e-01
2.691534803926931e-03	1.152458e-03	4.281786e-01
2.722701308077928e-03	1.165811e-03	4.281816e-01
2.754228703338183e-03	1.179318e-03	4.281846e-01
2.786121168629787e-03	1.192983e-03	4.281876e-01
2.818382931264471e-03	1.206805e-03	4.281907e-01
2.851018267503926e-03	1.220788e-03	4.281938e-01
2.884031503126624e-03	1.234934e-03	4.281970e-01
2.917427014001185e-03	1.249243e-03	4.282002e-01
2.951209226666404e-03	1.263718e-03	4.282034e-01
2.985382618917979e-03	1.278361e-03	4.282067e-01
3.019951720402036e-03	1.293173e-03	4.282100e-01
3.054921113215533e-03	1.308158e-03	4.282133e-01
3.090295432513611e-03	1.323316e-03	4.282167e-01
3.126079367123976e-03	1.338650e-03	4.282201e-01
3.162277660168401e-03	1.354162e-03	4.282236e-01
3.198895109691419e-03	1.369853e-03	4.282271e-01
3.235936569296305e-03	1.385727e-03	4.282306e-01
3.273406948788405e-03	1.401785e-03	4.282342e-01
3.311311214825934e-03	1.418029e-03	4.282378e-01
3.349654391578300e-03	1.434461e-03	4.282415e-01
3.388441561392049e-03	1.451084e-03	4.282452e-01
3.427677865464528e-03	1.467899e-03	4.282489e-01
3.467368504525341e-03	1.484910e-03	4.282527e-01
3.507518739525706e-03	1.502118e-03	4.282565e-01
3.548133892335781e-03	1.519525e-03	4.282604e-01
3.589219346450079e-03	1.537135e-03	4.282643e-01
3.630780547701041e-03	1.554948e-03	4.282683e-01
3.672823004980874e-03	1.572969e-03	4.282724e-01
3.715352290971754e-03	1.591198e-03	4.282764e-01
3.758374042884471e-03	1.609638e-03	4.282805e-01
3.801893963205641e-03	1.628293e-03	4.282847e-01
3.845917820453566e-03	1.647164e-03	4.282889e-01
3.890451449942837e-03	1.666254e-03	4.282932e-01
3.935500754557806e-03	1.685565e-03	4.282975e-01
3.981071705535005e-03	1.705100e-03	4.283018e-01
4.027170343254624e-03	1.724862e-03	4.283062e-01
4.073802778041160e-03	1.744853e-03	4.283107e-01
4.120975190973336e-03	1.765076e-03	4.283152e-01
4.168693834703388e-03	1.785534e-03	4.283198e-01
4.216965034285858e-03	1.806229e-03	4.283244e-01
4.265795188015962e-03	1.827164e-03	4.283291e-01
4.315190768277689e-03	1.848342e-03	4.283338e-01
4.365158322401697e-03	1.869766e-03	4.283386e-01
4.415704473533163e-03	1.891438e-03	4.283434e-01
4.466835921509670e-03	1.913361e-03	4.283483e-01
4.518559443749263e-03	1.935539e-03	4.283532e-01
4.570881896148790e-03	1.957975e-03	4.283582e-01
4.623810213992644e-03	1.980670e-03	4.283633e-01
4.677351412872024e-03	2.003629e-03	4.283684e-01
4.731512589614848e-03	2.026855e-03	4.283736e-01
4.786300923226427e-03	2.050350e-03	4.283788e-01
4.841723675841038e-03	2.074118e-03	4.283841e-01
4.897788193684507e-03	2.098161e-03	4.283895e-01
4.954501908047948e-03	2.122483e-03	4.283949e-01
5.011872336272769e-03	2.147088e-03	4.284004e-01
5.069907082747091e-03	2.171978e-03	4.284059e-01
5.128613839913697e-03	2.197157e-03	4.284115e-01
5.188000389289661e-03	2.222629e-03	4.284172e-01
5.248074602497777e-03	2.248396e-03	4.284230e-01
5.308844442309934e-03	2.274462e-03	4.284288e-01
5.370317963702580e-03	2.300831e-03	4.284347e-01
5.432503314924386e-03	2.327505e-03	4.284406e-01
5.495408738576300e-03	2.354489e-03	4.284467e-01
5.559042572704091e-03	2.381787e-03	4.284527e-01
5.623413251903547e-03	2.409401e-03	4.284589e-01
5.688529308438472e-03	2.437336e-03	4.284651e-01
5.754399373371627e-03	2.465596e-03	4.284714e-01
5.821032177708773e-03	2.494183e-03	4.284778e-01
5.888436553555950e-03	2.523102e-03	4.284843e-01
5.956621435290166e-03	2.552357e-03	4.284908e-01
6.025595860743640e-03	2.581952e-03	4.284974e-01
6.095368972401756e-03	2.611890e-03	4.285040e-01
6.165950018614886e-03	2.642176e-03	4.285108e-01
6.237348354824258e-03	2.672814e-03	4.285176e-01
6.309573444802001e-03	2.703807e-03	4.285246e-01
6.382634861905555e-03	2.735160e-03	4.285316e-01
6.456542290346625e-03	2.766878e-03	4.285386e-01
6.531305526474795e-03	2.798963e-03	4.285458e-01
6.606934480076032e-03	2.831422e-03	4.285530e-01
6.683439175686219e-03	2.864257e-03	4.285603e-01
6.760829753919893e-03	2.897474e-03	4.285677e-01
6.839116472814369e-03	2.931076e-03	4.285752e-01
6.918309709189443e-03	2.965069e-03	4.285828e-01
6.998419960022813e-03	2.999456e-03	4.285905e-01
7.079457843841458e-03	3.034243e-03	4.285983e-01
7.161434102129102e-03	3.069434e-03	4.286061e-01
7.244359600749984e-03	3.105034e-03	4.286140e-01
7.328245331389125e-03	3.141048e-03	4.286221e-01
7.413102413009261e-03	3.177480e-03	4.286302e-01
7.498942093324646e-03	3.214335e-03	4.286384e-01
7.585775750291926e-03	3.251618e-03	4.286467e-01
7.673614893618280e-03	3.289334e-03	4.286551e-01
7.762471166287010e-03	3.327489e-03	4.286636e-01
7.852356346100811e-03	3.366087e-03	4.286723e-01
7.943282347242911e-03	3.405134e-03	4.286810e-01
8.035261221856270e-03	3.444634e-03	4.286898e-01
8.128305161641092e-03	3.484594e-03	4.286987e-01
8.222426499470812e-03	3.525018e-03	4.287077e-01
8.317637711026813e-03	3.565911e-03	4.287168e-01
8.413951416452056e-03	3.607280e-03	4.287260e-01
8.511380382023870e-03	3.649130e-03	4.287354e-01
8.609937521846113e-03	3.691466e-03	4.287448e-01
8.709635899560916e-03	3.734295e-03	4.287544e-01
8.810488730080251e-03	3.777621e-03	4.287640e-01
8.912509381337568e-03	3.821451e-03	4.287738e-01
9.015711376059683e-03	3.865790e-03	4.287837e-01
9.120108393559215e-03	3.910645e-03	4.287937e-01
9.225714271547749e-03	3.956022e-03	4.288038e-01
9.332543007970031e-03	4.001926e-03	4.288141e-01
9.440608762859355e-03	4.048364e-03	4.288244e-01
9.549925860214484e-03	4.095342e-03	4.288349e-01
9.660508789898261e-03	4.142866e-03	4.288455e-01
9.772372209558237e-03	4.190943e-03	4.288562e-01
9.885530946569521e-03	4.239579e-03	4.288671e-01
1.000000000000013e-02	4.288781e-03	4.288780e-01
1.011579454259912e-02	4.338555e-03	4.288891e-01
1.023292992280768e-02	4.388907e-03	4.289004e-01
1.035142166679358e-02	4.439846e-03	4.289117e-01
1.047128548050914e-02	4.491378e-03	4.289232e-01
1.059253725177303e-02	4.543508e-03	4.289348e-01
1.071519305237621e-02	4.596246e-03	4.289466e-01
1.083926914021218e-02	4.649597e-03	4.289585e-01
1.096478196143200e-02	4.703568e-03	4.289705e-01
1.109174815262417e-02	4.758168e-03	4.289827e-01
1.122018454301979e-02	4.813403e-03	4.289950e-01
1.135010815672331e-02	4.869282e-03	4.290075e-01
1.148153621496899e-02	4.925810e-03	4.290201e-01
1.161448613840359e-02	4.982996e-03	4.290329e-01
1.174897554939546e-02	5.040848e-03	4.290458e-01
1.188502227437035e-02	5.099374e-03	4.290588e-01
1.202264434617430e-02	5.158580e-03	4.290720e-01
1.216186000646386e-02	5.218477e-03	4.290854e-01
1.230268770812399e-02	5.279070e-03	4.290989e-01
1.244514611771403e-02	5.340368e-03	4.291126e-01
1.258925411794186e-02	5.402382e-03	4.291264e-01
1.273503081016680e-02	5.465116e-03	4.291404e-01
1.288249551693153e-02	5.528581e-03	4.291545e-01
1.303166778452319e-02	5.592786e-03	4.291689e-01
1.318256738556427e-02	5.657739e-03	4.291834e-01
1.333521432163344e-02	5.723448e-03	4.291980e-01
1.348962882591674e-02	5.789922e-03	4.292128e-01
1.364583136588945e-02	5.857171e-03	4.292278e-01
1.380384264602906e-02	5.925203e-03	4.292430e-01
1.396368361055959e-02	5.994028e-03	4.292583e-01
1.412537544622776e-02	6.063655e-03	4.292739e-01
1.428893958511125e-02	6.134093e-03	4.292896e-01
1.445439770745950e-02	6.205352e-03	4.293055e-01
1.462177174456741e-02	6.277442e-03	4.293216e-01
1.479108388168230e-02	6.350372e-03	4.293378e-01
1.496235656094457e-02	6.424152e-03	4.293543e-01
1.513561248436232e-02	6.498792e-03	4.293709e-01
1.531087461682054e-02	6.574302e-03	4.293878e-01
1.548816618912506e-02	6.650693e-03	4.294048e-01
1.566751070108174e-02	6.727975e-03	4.294221e-01
1.584893192461139e-02	6.806157e-03	4.294395e-01
1.603245390690067e-02	6.885251e-03	4.294571e-01
1.621810097358956e-02	6.965268e-03	4.294750e-01
1.640589773199566e-02	7.046219e-03	4.294930e-01
1.659586907437587e-02	7.128113e-03	4.295113e-01
1.678804018122588e-02	7.210963e-03	4.295298e-01
1.698243652461772e-02	7.294780e-03	4.295485e-01
1.717908387157616e-02	7.379574e-03	4.295674e-01
1.737800828749404e-02	7.465358e-03	4.295865e-01
1.757923613958722e-02	7.552143e-03	4.296059e-01
1.778279410038952e-02	7.639941e-03	4.296255e-01
1.798870915128818e-02	7.728764e-03	4.296453e-01
1.819700858610014e-02	7.818623e-03	4.296653e-01
1.840772001468987e-02	7.909532e-03	4.296856e-01
1.862087136662899e-02	8.001503e-03	4.297061e-01
1.883649089489832e-02	8.094546e-03	4.297269e-01
1.905460717963280e-02	8.188677e-03	4.297478e-01
1.927524913190969e-02	8.283907e-03	4.297691e-01
1.949844599758079e-02	8.380248e-03	4.297906e-01
1.972422736114888e-02	8.477716e-03	4.298123e-01
1.995262314968914e-02	8.576322e-03	4.298343e-01
2.018366363681596e-02	8.676080e-03	4.298566e-01
2.041737944669565e-02	8.777005e-03	4.298791e-01
2.065380155810565e-02	8.879107e-03	4.299019e-01
2.089296130854076e-02	8.982404e-03	4.299249e-01
2.113489039836684e-02	9.086908e-03	4.299482e-01
2.137962089502270e-02	9.192634e-03	4.299718e-01
2.162718523727059e-02	9.299596e-03	4.299957e-01
2.187761623949592e-02	9.407808e-03	4.300198e-01
2.213094709605678e-02	9.517286e-03	4.300442e-01
2.238721138568380e-02	9.628044e-03	4.300689e-01
2.264644307593101e-02	9.740097e-03	4.300939e-01
2.290867652767815e-02	9.853462e-03	4.301192e-01
2.317394649968521e-02	9.968152e-03	4.301448e-01
2.344228815319965e-02	1.008418e-02	4.301707e-01
2.371373705661699e-02	1.020158e-02	4.301969e-01
2.398832919019534e-02	1.032034e-02	4.302233e-01
2.426610095082460e-02	1.044049e-02	4.302501e-01
2.454708915685076e-02	1.056205e-02	4.302773e-01
2.483133105295616e-02	1.068504e-02	4.303047e-01
2.511886431509627e-02	1.080946e-02	4.303325e-01
2.540972705549353e-02	1.093534e-02	4.303605e-01
2.570395782768912e-02	1.106270e-02	4.303889e-01
2.600159563165321e-02	1.119155e-02	4.304177e-01
2.630267991895432e-02	1.132190e-02	4.304468e-01
2.660725059798860e-02	1.145379e-02	4.304762e-01
2.691534803926967e-02	1.158722e-02	4.305060e-01
2.722701308077964e-02	1.172221e-02	4.305361e-01
2.754228703338219e-02	1.185879e-02	4.305665e-01
2.786121168629824e-02	1.199696e-02	4.305974e-01
2.818382931264508e-02	1.213676e-02	4.306285e-01
2.851018267503964e-02	1.227820e-02	4.306601e-01
2.884031503126662e-02	1.242129e-02	4.306920e-01
2.917427014001224e-02	1.256607e-02	4.307243e-01
2.951209226666444e-02	1.271254e-02	4.307570e-01
2.985382618918018e-02	1.286073e-02	4.307900e-01
3.019951720402076e-02	1.301066e-02	4.308235e-01
3.054921113215574e-02	1.316235e-02	4.308573e-01
3.090295432513652e-02	1.331582e-02	4.308916e-01
3.126079367124017e-02	1.347110e-02	4.309262e-01
3.162277660168442e-02	1.362819e-02	4.309613e-01
3.198895109691462e-02	1.378713e-02	4.309967e-01
3.235936569296348e-02	1.394794e-02	4.310326e-01
3.273406948788447e-02	1.411064e-02	4.310689e-01
3.311311214825978e-02	1.427525e-02	4.311056e-01
3.349654391578344e-02	1.444179e-02	4.311428e-01
3.388441561392094e-02	1.461030e-02	4.311804e-01
3.427677865464574e-02	1.478078e-02	4.312184e-01
3.467368504525388e-02	1.495327e-02	4.312569e-01
3.507518739525752e-02	1.512778e-02	4.312958e-01
3.548133892335828e-02	1.530435e-02	4.313352e-01
3.589219346450127e-02	1.548300e-02	4.313751e-01
3.630780547701089e-02	1.566375e-02	4.314154e-01
3.672823004980923e-02	1.584662e-02	4.314562e-01
3.715352290971803e-02	1.603165e-02	4.314975e-01
3.758374042884521e-02	1.621886e-02	4.315393e-01
3.801893963205692e-02	1.640827e-02	4.315815e-01
3.845917820453617e-02	1.659992e-02	4.316243e-01
3.890451449942889e-02	1.679382e-02	4.316675e-01
3.935500754557858e-02	1.699000e-02	4.317113e-01
3.981071705535057e-02	1.718850e-02	4.317556e-01
4.027170343254678e-02	1.738934e-02	4.318004e-01
4.073802778041215e-02	1.759254e-02	4.318458e-01
4.120975190973390e-02	1.779815e-02	4.318916e-01
4.168693834703444e-02	1.800617e-02	4.319381e-01
4.216965034285914e-02	1.821666e-02	4.319850e-01
4.265795188016019e-02	1.842962e-02	4.320325e-01
4.315190768277746e-02	1.864510e-02	4.320806e-01
4.365158322401755e-02	1.886313e-02	4.321293e-01
4.415704473533221e-02	1.908372e-02	4.321785e-01
4.466835921509730e-02	1.930693e-02	4.322283e-01
4.518559443749323e-02	1.953277e-02	4.322787e-01
4.570881896148851e-02	1.976128e-02	4.323297e-01
4.623810213992705e-02	1.999249e-02	4.323812e-01
4.677351412872086e-02	2.022643e-02	4.324334e-01
4.731512589614911e-02	2.046314e-02	4.324863e-01
4.786300923226491e-02	2.070265e-02	4.325397e-01
4.841723675841102e-02	2.094499e-02	4.325938e-01
4.897788193684572e-02	2.119021e-02	4.326485e-01
4.954501908048014e-02	2.143832e-02	4.327038e-01
5.011872336272837e-02	2.168937e-02	4.327599e-01
5.069907082747159e-02	2.194340e-02	4.328165e-01
5.128613839913766e-02	2.220043e-02	4.328739e-01
5.188000389289729e-02	2.246051e-02	4.329319e-01
5.248074602497847e-02	2.272367e-02	4.329906e-01
5.308844442310006e-02	2.298995e-02	4.330500e-01
5.370317963702651e-02	2.325939e-02	4.331101e-01
5.432503314924457e-02	2.353203e-02	4.331709e-01
5.495408738576373e-02	2.380790e-02	4.332325e-01
5.559042572704165e-02	2.408704e-02	4.332948e-01
5.623413251903622e-02	2.436950e-02	4.333578e-01
5.688529308438547e-02	2.465531e-02	4.334216e-01
5.754399373371704e-02	2.494452e-02	4.334861e-01
5.821032177708851e-02	2.523716e-02	4.335513e-01
5.888436553556028e-02	2.553328e-02	4.336174e-01
5.956621435290246e-02	2.583292e-02	4.336841e-01
6.025595860743720e-02	2.613613e-02	4.337518e-01
6.095368972401836e-02	2.644294e-02	4.338202e-01
6.165950018614968e-02	2.675340e-02	4.338894e-01
6.237348354824342e-02	2.706756e-02	4.339594e-01
6.309573444802083e-02	2.738546e-02	4.340303e-01
6.382634861905639e-02	2.770715e-02	4.341020e-01
6.456542290346710e-02	2.803266e-02	4.341746e-01
6.531305526474881e-02	2.836206e-02	4.342480e-01
6.606934480076120e-02	2.869539e-02	4.343223e-01
6.683439175686307e-02	2.903269e-02	4.343975e-01
6.760829753919982e-02	2.937402e-02	4.344736e-01
6.839116472814460e-02	2.971942e-02	4.345506e-01
6.918309709189535e-02	3.006895e-02	4.346285e-01
6.998419960022906e-02	3.042265e-02	4.347074e-01
7.079457843841552e-02	3.078057e-02	4.347872e-01
7.161434102129198e-02	3.114278e-02	4.348679e-01
7.244359600750080e-02	3.150931e-02	4.349496e-01
7.328245331389222e-02	3.188023e-02	4.350323e-01
7.413102413009361e-02	3.225559e-02	4.351159e-01
7.498942093324747e-02	3.263544e-02	4.352006e-01
7.585775750292029e-02	3.301984e-02	4.352863e-01
7.673614893618383e-02	3.340885e-02	4.353730e-01
7.762471166287112e-02	3.380251e-02	4.354607e-01
7.852356346100917e-02	3.420090e-02	4.355495e-01
7.943282347243016e-02	3.460407e-02	4.356394e-01
8.035261221856377e-02	3.501207e-02	4.357303e-01
8.128305161641199e-02	3.542497e-02	4.358223e-01
8.222426499470922e-02	3.584283e-02	4.359154e-01
8.317637711026922e-02	3.626570e-02	4.360097e-01
8.413951416452166e-02	3.669367e-02	4.361050e-01
8.511380382023982e-02	3.712678e-02	4.362016e-01
8.609937521846227e-02	3.756509e-02	4.362992e-01
8.709635899561032e-02	3.800868e-02	4.363981e-01
8.810488730080369e-02	3.845761e-02	4.364980e-01
8.912509381337687e-02	3.891195e-02	4.365993e-01
9.015711376059803e-02	3.937177e-02	4.367017e-01
9.120108393559334e-02	3.983712e-02	4.368054e-01
9.225714271547872e-02	4.030810e-02	4.369103e-01
9.332543007970155e-02	4.078475e-02	4.370165e-01
9.440608762859481e-02	4.126716e-02	4.371239e-01
9.549925860214611e-02	4.175539e-02	4.372326e-01
9.660508789898389e-02	4.224953e-02	4.373427e-01
9.772372209558365e-02	4.274964e-02	4.374541e-01
9.885530946569650e-02	4.325580e-02	4.375668e-01
1.000000000000027e-01	4.376809e-02	4.376808e-01
1.011579454259926e-01	4.428657e-02	4.377963e-01
1.023292992280781e-01	4.481134e-02	4.379131e-01
1.035142166679372e-01	4.534247e-02	4.380313e-01
1.047128548050928e-01	4.588004e-02	4.381510e-01
1.059253725177317e-01	4.642413e-02	4.382721e-01
1.071519305237635e-01	4.697483e-02	4.383946e-01
1.083926914021233e-01	4.753222e-02	4.385186e-01
1.096478196143215e-01	4.809638e-02	4.386442e-01
1.109174815262431e-01	4.866739e-02	4.387712e-01
1.122018454301994e-01	4.924536e-02	4.388998e-01
1.135010815672346e-01	4.983036e-02	4.390298e-01
1.148153621496914e-01	5.042249e-02	4.391615e-01
1.161448613840375e-01	5.102183e-02	4.392948e-01
1.174897554939562e-01	5.162848e-02	4.394296e-01
1.188502227437051e-01	5.224254e-02	4.395661e-01
