Circuit: * C:\Users\Lionheart\Desktop\Version Final\LTSpice\Version Final.asc

Warning: Multiple definitions of model "2scr375p" Type: BJT
Warning: Multiple definitions of model "bc857b" Type: BJT
Warning: Multiple definitions of model "bc847c" Type: BJT
Warning: Multiple definitions of model "bc847b" Type: BJT
Direct Newton iteration for .op point succeeded.
Semiconductor Device Operating Points:
                        --- Bipolar Transistors ---
Name:       q5          q9          q8          q7          q6
Model:    tip42c      bc547c      bc547c      bc547c      bc547c
Ib:      -4.11e-03    2.23e-06    2.27e-06    2.26e-06    8.14e-06
Ic:      -4.23e-01    1.03e-03    1.03e-03    1.03e-03    4.11e-03
Vbe:     -7.68e-01    6.22e-01    6.23e-01    6.22e-01    6.57e-01
Vbc:      7.79e+00   -9.74e-01    0.00e+00   -4.13e-01   -7.14e+00
Vce:     -8.56e+00    1.60e+00    6.23e-01    1.04e+00    7.79e+00
BetaDC:   1.03e+02    4.61e+02    4.52e+02    4.56e+02    5.05e+02
Gm:       1.32e+01    3.90e-02    3.90e-02    3.91e-02    1.53e-01
Rpi:      6.51e+00    1.17e+04    1.15e+04    1.16e+04    3.21e+03
Rx:       1.00e-01    1.00e+00    1.00e+00    1.00e+00    1.00e+00
Ro:       2.55e+02    5.21e+04    5.11e+04    5.15e+04    1.45e+04
Cbe:      3.07e-07    5.02e-11    5.03e-11    5.03e-11    1.06e-10
Cbc:      1.80e-10    1.67e-12    2.74e-12    2.00e-12    1.00e-12
Cjs:      0.00e+00    0.00e+00    0.00e+00    0.00e+00    0.00e+00
BetaAC:   8.60e+01    4.58e+02    4.50e+02    4.53e+02    4.93e+02
Cbx:      0.00e+00    1.03e-12    1.69e-12    1.23e-12    6.17e-13
Ft:       6.83e+06    1.17e+08    1.14e+08    1.16e+08    2.27e+08

Name:       q2          q1          q4          q3
Model:    bc547c      bc547c      bc557c      bc557c
Ib:      -3.51e-12    2.04e-06   -1.81e-06   -2.30e-06
Ic:       1.62e-12    1.03e-03   -1.04e-03   -1.02e-03
Vbe:     -1.88e+00    6.20e-01   -6.13e-01   -6.19e-01
Vbc:     -1.60e+00   -5.90e+00    6.80e+00    0.00e+00
Vce:     -2.84e-01    6.52e+00   -7.42e+00   -6.19e-01
BetaDC:  -4.63e-01    5.03e+02    5.72e+02    4.44e+02
Gm:      -9.12e-39    3.91e-02    3.91e-02    3.84e-02
Rpi:      1.00e+12    1.28e+04    1.46e+04    1.15e+04
Rx:       1.00e+00    1.00e+00    1.00e+00    1.00e+00
Ro:       1.10e+38    5.69e+04    2.94e+04    2.31e+04
Cbe:      7.46e-12    5.01e-11    5.21e-11    5.20e-11
Cbc:      1.49e-12    1.06e-12    1.54e-12    4.91e-12
Cjs:      0.00e+00    0.00e+00    0.00e+00    0.00e+00
BetaAC:  -9.12e-27    5.01e+02    5.71e+02    4.41e+02
Cbx:      9.13e-13    6.50e-13    9.12e-13    2.90e-12
Ft:       1.61e-02    1.20e+08    1.14e+08    1.02e+08



vo1rc: v(vo)=5.00534 at 100
vo2rc: v(vo)=4.99948 at 5
io1rc: i(rl)=0.0500534 at 100
io2rc: i(rl)=1.00008 at 5
regcar: (-(vo2rc-vo1rc)/(io2rc-io1rc))=0.00617182


Date: Mon Mar 31 13:49:41 2025
Total elapsed time: 2.833 seconds.

tnom = 27
temp = 27
method = trap
totiter = 474
traniter = 0
tranpoints = 0
accept = 0
rejected = 0
matrix size = 44
fillins = 36
solver = Normal
Matrix Compiler1: 5.47 KB object code size
Matrix Compiler2: 4.54 KB object code size  0.4/0.4/[0.3]

