Circuit: * C:\Users\dbata\OneDrive\Escritorio\Checkpoint 1\Vref\VREF.asc

Warning: Multiple definitions of model "2scr375p" Type: BJT
Warning: Multiple definitions of model "bc857b" Type: BJT
Warning: Multiple definitions of model "bc847c" Type: BJT
Warning: Multiple definitions of model "bc847b" Type: BJT
Direct Newton iteration for .op point succeeded.
Semiconductor Device Operating Points:
                        --- Diodes ---
Name:    d:u1:3      d:u1:2      d:u1:1
Model:  u1:dmod2    u1:dmod1    u1:dmod1
Id:     -8.89e-13   -2.97e-12    2.99e-03
Vd:     -8.79e-01   -2.96e+00    6.84e-01
Req:     1.00e+12    1.00e+12    8.65e+00
CAP:     0.00e+00    0.00e+00    0.00e+00

                        --- Bipolar Transistors ---
Name:       q1
Model:    qtip41c
Ib:       4.51e-05
Ic:       9.55e-04
Vbe:      4.70e-01
Vbc:     -2.08e+00
Vce:      2.55e+00
BetaDC:   2.12e+01
Gm:       3.31e-02
Rpi:      1.16e+03
Rx:       4.56e+00
Ro:       1.07e+05
Cbe:      1.29e-09
Cbc:      6.46e-11
Cjs:      0.00e+00
BetaAC:   3.85e+01
Cbx:      1.58e-11
Ft:       3.84e+06



Date: Thu Mar 27 18:28:29 2025
Total elapsed time: 0.021 seconds.

tnom = 27
temp = 27
method = trap
totiter = 13
traniter = 0
tranpoints = 0
accept = 0
rejected = 0
matrix size = 17
fillins = 11
solver = Normal
Matrix Compiler1: 1.29 KB object code size
Matrix Compiler2: 1.39 KB object code size
